 (000.000000)  can0  155   [8]  00 00 00 00 FF FF 50 38
 (000.000096)  can0  156   [8]  00 00 75 30 00 00 00 00
 (000.009902)  can0  155   [8]  00 00 00 00 FF FF 50 38
 (000.000110)  can0  156   [8]  00 00 75 30 00 00 00 00
 (000.009877)  can0  155   [8]  00 00 00 00 FF FF 50 38
 (000.000125)  can0  156   [8]  00 00 75 30 00 00 00 00
 (000.009891)  can0  155   [8]  00 00 00 00 FF FF 50 38
 (000.000111)  can0  156   [8]  00 00 75 30 00 00 00 00
 (000.009879)  can0  155   [8]  00 00 00 00 FF FF 50 38
 (000.000103)  can0  156   [8]  00 00 75 30 00 00 00 00
 (000.009934)  can0  155   [8]  00 00 00 00 FF FF 50 38
 (000.000066)  can0  156   [8]  00 00 75 30 00 00 00 00
 (000.009930)  can0  155   [8]  00 00 00 00 FF FF 50 38
 (000.000077)  can0  156   [8]  00 00 75 30 00 00 00 00
 (000.009883)  can0  155   [8]  00 00 00 00 FF FF 50 38
 (000.000124)  can0  156   [8]  00 00 75 30 00 00 00 00
 (000.009885)  can0  155   [8]  00 00 00 00 FF FF 50 38
 (000.000118)  can0  156   [8]  00 00 75 30 00 00 00 00
 (000.009885)  can0  155   [8]  00 00 00 00 FF FF 50 38
 (000.000116)  can0  156   [8]  00 00 75 30 00 00 00 00
 (000.009884)  can0  155   [8]  00 00 00 00 FF FF 50 38
 (000.000113)  can0  156   [8]  00 00 75 30 00 00 00 00
 (000.009948)  can0  155   [8]  00 00 00 00 FF FF 50 38
 (000.000059)  can0  156   [8]  00 00 75 30 00 00 00 00
 (000.009882)  can0  155   [8]  00 00 00 00 FF FF 50 38
 (000.000105)  can0  156   [8]  00 00 75 30 00 00 00 00
 (000.009901)  can0  155   [8]  00 00 00 00 FF FF 50 38
 (000.000101)  can0  156   [8]  00 00 75 30 00 00 00 00
 (000.009891)  can0  155   [8]  00 00 00 00 FF FF 50 38
 (000.000106)  can0  156   [8]  00 00 75 30 00 00 00 00
 (000.009886)  can0  155   [8]  00 00 00 00 FF FF 50 38
 (000.000123)  can0  156   [8]  00 00 75 30 00 00 00 00
 (000.009920)  can0  155   [8]  00 00 00 00 FF FF 50 38
 (000.000089)  can0  156   [8]  00 00 75 30 00 00 00 00
 (000.009880)  can0  155   [8]  00 00 00 00 FF FF 50 38
 (000.000102)  can0  156   [8]  00 00 75 30 00 00 00 00
 (000.009903)  can0  155   [8]  00 00 00 00 FF FF 50 38
 (000.000094)  can0  156   [8]  00 00 75 30 00 00 00 00
 (000.009898)  can0  155   [8]  00 00 00 00 FF FF 50 38
 (000.000108)  can0  156   [8]  00 00 75 30 00 00 00 00
 (000.009902)  can0  155   [8]  00 00 00 00 FF FF 50 38
 (000.000105)  can0  156   [8]  00 00 75 30 00 00 00 00
 (000.009905)  can0  155   [8]  00 00 00 00 FF FF 50 38
 (000.000099)  can0  156   [8]  00 00 75 30 00 00 00 00
 (000.009878)  can0  155   [8]  00 00 00 00 FF FF 50 38
 (000.000129)  can0  156   [8]  00 00 75 30 00 00 00 00
 (000.009882)  can0  155   [8]  00 00 00 00 FF FF 50 38
 (000.000107)  can0  156   [8]  00 00 75 30 00 00 00 00
 (000.009880)  can0  155   [8]  00 00 00 00 FF FF 50 38
 (000.000127)  can0  156   [8]  00 00 75 30 00 00 00 00
 (000.009882)  can0  155   [8]  00 00 00 00 FF FF 50 38
 (000.000121)  can0  156   [8]  00 00 75 30 00 00 00 00
 (000.009903)  can0  155   [8]  00 00 00 00 FF FF 50 38
 (000.000095)  can0  156   [8]  00 00 75 30 00 00 00 00
 (000.009883)  can0  155   [8]  00 00 00 00 FF FF 50 38
 (000.000109)  can0  156   [8]  00 00 75 30 00 00 00 00
 (000.009898)  can0  155   [8]  00 00 00 00 FF FF 50 38
 (000.000104)  can0  156   [8]  00 00 75 30 00 00 00 00
 (000.009885)  can0  155   [8]  00 00 00 00 FF FF 50 38
 (000.000109)  can0  156   [8]  00 00 75 30 00 00 00 00
 (000.009903)  can0  155   [8]  00 00 00 00 FF FF 50 38
 (000.000103)  can0  156   [8]  00 00 75 30 00 00 00 00
 (000.009933)  can0  155   [8]  00 00 00 00 FF FF 50 38
 (000.000065)  can0  156   [8]  00 00 75 30 00 00 00 00
 (000.009890)  can0  155   [8]  00 00 00 00 FF FF 50 38
 (000.000120)  can0  156   [8]  00 00 75 30 00 00 00 00
 (000.009886)  can0  155   [8]  00 00 00 00 FF FF 50 38
 (000.000123)  can0  156   [8]  00 00 75 30 00 00 00 00
 (000.009877)  can0  155   [8]  00 00 00 00 FF FF 50 38
 (000.000121)  can0  156   [8]  00 00 75 30 00 00 00 00
 (000.009893)  can0  155   [8]  00 00 00 00 FF FF 50 38
 (000.000092)  can0  156   [8]  00 00 75 30 00 00 00 00
 (000.009916)  can0  155   [8]  00 00 00 00 FF FF 50 38
 (000.000088)  can0  156   [8]  00 00 75 30 00 00 00 00
 (000.009884)  can0  155   [8]  00 00 00 00 FF FF 50 38
 (000.000115)  can0  156   [8]  00 00 75 30 00 00 00 00
 (000.009887)  can0  155   [8]  00 00 00 00 FF FF 50 38
 (000.000127)  can0  156   [8]  00 00 75 30 00 00 00 00
 (000.009872)  can0  155   [8]  00 00 00 00 FF FF 50 38
 (000.000128)  can0  156   [8]  00 00 75 30 00 00 00 00
 (000.009885)  can0  155   [8]  00 00 00 00 FF FF 50 38
 (000.000100)  can0  156   [8]  00 00 75 30 00 00 00 00
 (000.009961)  can0  155   [8]  00 00 00 00 FF FF 50 38
 (000.000037)  can0  156   [8]  00 00 75 30 00 00 00 00
 (000.009896)  can0  155   [8]  00 00 00 00 FF FF 50 38
 (000.000110)  can0  156   [8]  00 00 75 30 00 00 00 00
 (000.009888)  can0  155   [8]  00 00 00 00 FF FF 50 38
 (000.000125)  can0  156   [8]  00 00 75 30 00 00 00 00
 (000.009867)  can0  155   [8]  00 00 00 00 FF FF 50 38
 (000.000131)  can0  156   [8]  00 00 75 30 00 00 00 00
 (000.009940)  can0  155   [8]  00 00 00 00 FF FF 50 38
 (000.000065)  can0  156   [8]  00 00 75 30 00 00 00 00
 (000.009910)  can0  155   [8]  00 00 00 00 FF FF 50 38
 (000.000065)  can0  156   [8]  00 00 75 30 00 00 00 00
 (000.009891)  can0  155   [8]  00 00 00 00 FF FF 50 38
 (000.000120)  can0  156   [8]  00 00 75 30 00 00 00 00
 (000.009878)  can0  155   [8]  00 00 00 00 FF FF 50 38
 (000.000128)  can0  156   [8]  00 00 75 30 00 00 00 00
 (000.009874)  can0  155   [8]  00 00 00 00 FF FF 50 38
 (000.000133)  can0  156   [8]  00 00 75 30 00 00 00 00
 (000.009887)  can0  155   [8]  00 00 00 00 FF FF 50 38
 (000.000106)  can0  156   [8]  00 00 75 30 00 00 00 00
 (000.009939)  can0  155   [8]  00 00 00 00 FF FF 50 38
 (000.000067)  can0  156   [8]  00 00 75 30 00 00 00 00
 (000.009868)  can0  155   [8]  00 00 00 00 FF FF 50 38
 (000.000130)  can0  156   [8]  00 00 75 30 00 00 00 00
 (000.009888)  can0  155   [8]  00 00 00 00 FF FF 50 38
 (000.000108)  can0  156   [8]  00 00 75 30 00 00 00 00
 (000.009880)  can0  155   [8]  00 00 00 00 FF FF 50 38
 (000.000124)  can0  156   [8]  00 00 75 30 00 00 00 00
 (000.009888)  can0  155   [8]  00 00 00 00 FF FF 50 38
 (000.000112)  can0  156   [8]  00 00 75 30 00 00 00 00
 (000.009925)  can0  155   [8]  00 00 00 00 FF FF 50 38
 (000.000064)  can0  156   [8]  00 00 75 30 00 00 00 00
 (000.009890)  can0  155   [8]  00 00 00 00 FF FF 50 38
 (000.000126)  can0  156   [8]  00 00 75 30 00 00 00 00
 (000.009947)  can0  155   [8]  00 00 00 00 FF FF 50 38
 (000.000063)  can0  156   [8]  00 00 75 30 00 00 00 00
 (000.009880)  can0  155   [8]  00 00 00 00 FF FF 50 38
 (000.000107)  can0  156   [8]  00 00 75 30 00 00 00 00
 (000.009887)  can0  155   [8]  00 00 00 00 FF FF 50 38
 (000.000123)  can0  156   [8]  00 00 75 30 00 00 00 00
 (000.009876)  can0  155   [8]  00 00 00 00 FF FF 50 38
 (000.000101)  can0  156   [8]  00 00 75 30 00 00 00 00
 (000.009891)  can0  155   [8]  00 00 00 00 FF FF 50 38
 (000.000123)  can0  156   [8]  00 00 75 30 00 00 00 00
 (000.009890)  can0  155   [8]  00 00 00 00 FF FF 50 38
 (000.000113)  can0  156   [8]  00 00 75 30 00 00 00 00
 (000.009883)  can0  155   [8]  00 00 00 00 FF FF 50 38
 (000.000117)  can0  156   [8]  00 00 75 30 00 00 00 00
 (000.009920)  can0  155   [8]  00 00 00 00 FF FF 50 38
 (000.000084)  can0  156   [8]  00 00 75 30 00 00 00 00
 (000.009911)  can0  155   [8]  00 00 00 00 FF FF 50 38
 (000.000079)  can0  156   [8]  00 00 75 30 00 00 00 00
 (000.009882)  can0  155   [8]  00 00 00 00 FF FF 50 38
 (000.000128)  can0  156   [8]  00 00 75 30 00 00 00 00
 (000.009878)  can0  155   [8]  00 00 00 00 FF FF 50 38
 (000.000121)  can0  156   [8]  00 00 75 30 00 00 00 00
 (000.009890)  can0  155   [8]  00 00 00 00 FF FF 50 38
 (000.000109)  can0  156   [8]  00 00 75 30 00 00 00 00
 (000.009883)  can0  155   [8]  00 00 00 00 FF FF 50 38
 (000.000103)  can0  156   [8]  00 00 75 30 00 00 00 00
 (000.009929)  can0  155   [8]  00 00 00 00 FF FF 50 38
 (000.000085)  can0  156   [8]  00 00 75 30 00 00 00 00
 (000.009872)  can0  155   [8]  00 00 00 00 FF FF 50 38
 (000.000127)  can0  156   [8]  00 00 75 30 00 00 00 00
 (000.009890)  can0  155   [8]  00 00 00 00 FF FF 50 38
 (000.000125)  can0  156   [8]  00 00 75 30 00 00 00 00
 (000.009869)  can0  155   [8]  00 00 00 00 FF FF 50 38
 (000.000102)  can0  156   [8]  00 00 75 30 00 00 00 00
 (000.009904)  can0  155   [8]  00 00 00 00 FF FF 50 38
 (000.000104)  can0  156   [8]  00 00 75 30 00 00 00 00
 (000.009904)  can0  155   [8]  00 00 00 00 FF FF 50 38
 (000.000092)  can0  156   [8]  00 00 75 30 00 00 00 00
 (000.009916)  can0  155   [8]  00 00 00 00 FF FF 50 38
 (000.000093)  can0  156   [8]  00 00 75 30 00 00 00 00
 (000.009884)  can0  155   [8]  00 00 00 00 FF FF 50 38
 (000.000106)  can0  156   [8]  00 00 75 30 00 00 00 00
 (000.009891)  can0  155   [8]  00 00 00 00 FF FF 50 38
 (000.000107)  can0  156   [8]  00 00 75 30 00 00 00 00
 (000.009903)  can0  155   [8]  00 00 00 00 FF FF 50 38
 (000.000110)  can0  156   [8]  00 00 75 30 00 00 00 00
 (000.009929)  can0  155   [8]  00 00 00 00 FF FF 50 38
 (000.000072)  can0  156   [8]  00 00 75 30 00 00 00 00
 (000.009904)  can0  155   [8]  00 00 00 00 FF FF 50 38
 (000.000096)  can0  156   [8]  00 00 75 30 00 00 00 00
 (000.009890)  can0  155   [8]  00 00 00 00 FF FF 50 38
 (000.000113)  can0  156   [8]  00 00 75 30 00 00 00 00
 (000.009880)  can0  155   [8]  00 00 00 00 FF FF 50 38
 (000.000124)  can0  156   [8]  00 00 75 30 00 00 00 00
 (000.009886)  can0  155   [8]  00 00 00 00 FF FF 50 38
 (000.000106)  can0  156   [8]  00 00 75 30 00 00 00 00
 (000.009904)  can0  155   [8]  00 00 00 00 FF FF 50 38
 (000.000086)  can0  156   [8]  00 00 75 30 00 00 00 00
 (000.009971)  can0  155   [8]  00 00 00 00 FF FF 50 38
 (000.000053)  can0  156   [8]  00 00 75 30 00 00 00 00
 (000.009885)  can0  155   [8]  00 00 00 00 FF FF 50 38
 (000.000097)  can0  156   [8]  00 00 75 30 00 00 00 00
 (000.009894)  can0  155   [8]  00 00 00 00 FF FF 50 38
 (000.000110)  can0  156   [8]  00 00 75 30 00 00 00 00
 (000.009918)  can0  155   [8]  00 00 00 00 FF FF 50 38
 (000.000085)  can0  156   [8]  00 00 75 30 00 00 00 00
 (000.009905)  can0  155   [8]  00 00 00 00 FF FF 50 38
 (000.000091)  can0  156   [8]  00 00 75 30 00 00 00 00
 (000.009893)  can0  155   [8]  00 00 00 00 FF FF 50 38
 (000.000110)  can0  156   [8]  00 00 75 30 00 00 00 00
 (000.009931)  can0  155   [8]  00 00 00 00 FF FF 50 38
 (000.000066)  can0  156   [8]  00 00 75 30 00 00 00 00
 (000.009891)  can0  155   [8]  00 00 00 00 FF FF 50 38
 (000.000115)  can0  156   [8]  00 00 75 30 00 00 00 00
 (000.009965)  can0  155   [8]  00 00 00 00 FF FF 50 38
 (000.000050)  can0  156   [8]  00 00 75 30 00 00 00 00
 (000.009961)  can0  155   [8]  00 00 00 00 FF FF 50 38
 (000.000029)  can0  156   [8]  00 00 75 30 00 00 00 00
 (000.009952)  can0  155   [8]  00 00 00 00 FF FF 50 38
 (000.000053)  can0  156   [8]  00 00 75 30 00 00 00 00
 (000.009918)  can0  155   [8]  00 00 00 00 FF FF 50 38
 (000.000069)  can0  156   [8]  00 00 75 30 00 00 00 00
 (000.009894)  can0  155   [8]  00 00 00 00 FF FF 50 38
 (000.000109)  can0  156   [8]  00 00 75 30 00 00 00 00
 (000.009963)  can0  155   [8]  00 00 00 00 FF FF 50 38
 (000.000046)  can0  156   [8]  00 00 75 30 00 00 00 00
 (000.009983)  can0  155   [8]  00 00 00 00 FF FF 50 38
 (000.000018)  can0  156   [8]  00 00 75 30 00 00 00 00
 (000.009948)  can0  155   [8]  00 00 00 00 FF FF 50 38
 (000.000060)  can0  156   [8]  00 00 75 30 00 00 00 00
 (000.009941)  can0  155   [8]  00 00 00 00 FF FF 50 38
 (000.000051)  can0  156   [8]  00 00 75 30 00 00 00 00
 (000.009875)  can0  155   [8]  00 00 00 00 FF FF 50 38
 (000.000116)  can0  156   [8]  00 00 75 30 00 00 00 00
 (000.009958)  can0  155   [8]  00 00 00 00 FF FF 50 38
 (000.000050)  can0  156   [8]  00 00 75 30 00 00 00 00
 (000.009901)  can0  155   [8]  00 00 00 00 FF FF 50 38
 (000.000095)  can0  156   [8]  00 00 75 30 00 00 00 00
 (000.009946)  can0  155   [8]  00 00 00 00 FF FF 50 38
 (000.000068)  can0  156   [8]  00 00 75 30 00 00 00 00
 (000.009942)  can0  155   [8]  00 00 00 00 FF FF 50 38
 (000.000075)  can0  156   [8]  00 00 75 30 00 00 00 00
 (000.009854)  can0  155   [8]  00 00 00 00 FF FF 50 38
 (000.000128)  can0  156   [8]  00 00 75 30 00 00 00 00
 (000.009947)  can0  155   [8]  00 00 00 00 FF FF 50 38
 (000.000046)  can0  156   [8]  00 00 75 30 00 00 00 00
 (000.009897)  can0  155   [8]  00 00 00 00 FF FF 50 38
 (000.000097)  can0  156   [8]  00 00 75 30 00 00 00 00
 (000.009954)  can0  155   [8]  00 00 00 00 FF FF 50 38
 (000.000052)  can0  156   [8]  00 00 75 30 00 00 00 00
 (000.009886)  can0  155   [8]  00 00 00 00 FF FF 50 38
 (000.000108)  can0  156   [8]  00 00 75 30 00 00 00 00
 (000.009883)  can0  155   [8]  00 00 00 00 FF FF 50 38
 (000.000118)  can0  156   [8]  00 00 75 30 00 00 00 00
 (000.009875)  can0  155   [8]  00 00 00 00 FF FF 50 38
 (000.000134)  can0  156   [8]  00 00 75 30 00 00 00 00
 (000.009981)  can0  155   [8]  00 00 00 00 FF FF 50 38
 (000.000022)  can0  156   [8]  00 00 75 30 00 00 00 00
 (000.009961)  can0  155   [8]  00 00 00 00 FF FF 50 38
 (000.000032)  can0  156   [8]  00 00 75 30 00 00 00 00
 (000.009956)  can0  155   [8]  00 00 00 00 FF FF 50 38
 (000.000060)  can0  156   [8]  00 00 75 30 00 00 00 00
 (000.009938)  can0  155   [8]  00 00 00 00 FF FF 50 38
 (000.000056)  can0  156   [8]  00 00 75 30 00 00 00 00
 (000.009942)  can0  155   [8]  00 00 00 00 FF FF 50 38
 (000.000057)  can0  156   [8]  00 00 75 30 00 00 00 00
 (000.009949)  can0  155   [8]  00 00 00 00 FF FF 50 38
 (000.000038)  can0  156   [8]  00 00 75 30 00 00 00 00
 (000.009955)  can0  155   [8]  00 00 00 00 FF FF 50 38
 (000.000044)  can0  156   [8]  00 00 75 30 00 00 00 00
 (000.009973)  can0  155   [8]  00 00 00 00 FF FF 50 38
 (000.000049)  can0  156   [8]  00 00 75 30 00 00 00 00
 (000.009931)  can0  155   [8]  00 00 00 00 FF FF 50 38
 (000.000071)  can0  156   [8]  00 00 75 30 00 00 00 00
 (000.009977)  can0  155   [8]  00 00 00 00 FF FF 50 38
 (000.000041)  can0  156   [8]  00 00 75 30 00 00 00 00
 (000.009931)  can0  155   [8]  00 00 00 00 FF FF 50 38
 (000.000038)  can0  156   [8]  00 00 75 30 00 00 00 00
 (000.009940)  can0  155   [8]  00 00 00 00 FF FF 50 38
 (000.000071)  can0  156   [8]  00 00 75 30 00 00 00 00
 (000.009936)  can0  155   [8]  00 00 00 00 FF FF 50 38
 (000.000058)  can0  156   [8]  00 00 75 30 00 00 00 00
 (000.009938)  can0  155   [8]  00 00 00 00 FF FF 50 38
 (000.000064)  can0  156   [8]  00 00 75 30 00 00 00 00
 (000.009939)  can0  155   [8]  00 00 00 00 FF FF 50 38
 (000.000059)  can0  156   [8]  00 00 75 30 00 00 00 00
 (000.009951)  can0  155   [8]  00 00 00 00 FF FF 50 38
 (000.000038)  can0  156   [8]  00 00 75 30 00 00 00 00
 (000.009951)  can0  155   [8]  00 00 00 00 FF FF 50 38
 (000.000060)  can0  156   [8]  00 00 75 30 00 00 00 00
 (000.009944)  can0  155   [8]  00 00 00 00 FF FF 50 38
 (000.000058)  can0  156   [8]  00 00 75 30 00 00 00 00
 (000.009938)  can0  155   [8]  00 00 00 00 FF FF 50 38
 (000.000069)  can0  156   [8]  00 00 75 30 00 00 00 00
 (000.009939)  can0  155   [8]  00 00 00 00 FF FF 50 38
 (000.000059)  can0  156   [8]  00 00 75 30 00 00 00 00
 (000.009941)  can0  155   [8]  00 00 00 00 FF FF 50 38
 (000.000046)  can0  156   [8]  00 00 75 30 00 00 00 00
 (000.009948)  can0  155   [8]  00 00 00 00 FF FF 50 38
 (000.000066)  can0  156   [8]  00 00 75 30 00 00 00 00
 (000.009959)  can0  155   [8]  00 00 00 00 FF FF 50 38
 (000.000029)  can0  156   [8]  00 00 75 30 00 00 00 00
 (000.009940)  can0  155   [8]  00 00 00 00 FF FF 50 38
 (000.000061)  can0  156   [8]  00 00 75 30 00 00 00 00
 (000.009942)  can0  155   [8]  00 00 00 00 FF FF 50 38
 (000.000061)  can0  156   [8]  00 00 75 30 00 00 00 00
 (000.009984)  can0  155   [8]  00 00 00 00 FF FF 50 38
 (000.000106)  can0  156   [8]  00 00 75 30 00 00 00 00
 (000.009849)  can0  155   [8]  00 00 00 00 FF FF 50 38
 (000.000059)  can0  156   [8]  00 00 75 30 00 00 00 00
 (000.009942)  can0  155   [8]  00 00 00 00 FF FF 50 38
 (000.000057)  can0  156   [8]  00 00 75 30 00 00 00 00
 (000.009944)  can0  155   [8]  00 00 00 00 FF FF 50 38
 (000.000059)  can0  156   [8]  00 00 75 30 00 00 00 00
 (000.009941)  can0  155   [8]  00 00 00 00 FF FF 50 38
 (000.000056)  can0  156   [8]  00 00 75 30 00 00 00 00
 (000.009966)  can0  155   [8]  00 00 00 00 FF FF 50 38
 (000.000033)  can0  156   [8]  00 00 75 30 00 00 00 00
 (000.009947)  can0  155   [8]  00 00 00 00 FF FF 50 38
 (000.000052)  can0  156   [8]  00 00 75 30 00 00 00 00
 (000.009954)  can0  155   [8]  00 00 00 00 FF FF 50 38
 (000.000050)  can0  156   [8]  00 00 75 30 00 00 00 00
 (000.009957)  can0  155   [8]  00 00 00 00 FF FF 50 38
 (000.000042)  can0  156   [8]  00 00 75 30 00 00 00 00
 (000.009945)  can0  155   [8]  00 00 00 00 FF FF 50 38
 (000.000057)  can0  156   [8]  00 00 75 30 00 00 00 00
 (000.009988)  can0  155   [8]  00 00 00 00 FF FF 50 38
 (000.000027)  can0  156   [8]  00 00 75 30 00 00 00 00
 (000.009923)  can0  155   [8]  00 00 00 00 FF FF 50 38
 (000.000071)  can0  156   [8]  00 00 75 30 00 00 00 00
 (000.009942)  can0  155   [8]  00 00 00 00 FF FF 50 38
 (000.000065)  can0  156   [8]  00 00 75 30 00 00 00 00
 (000.009940)  can0  155   [8]  00 00 00 00 FF FF 50 38
 (000.000042)  can0  156   [8]  00 00 75 30 00 00 00 00
 (000.009954)  can0  155   [8]  00 00 00 00 FF FF 50 38
 (000.000044)  can0  156   [8]  00 00 75 30 00 00 00 00
 (000.009982)  can0  155   [8]  00 00 00 00 FF FF 50 38
 (000.000028)  can0  156   [8]  00 00 75 30 00 00 00 00
 (000.009951)  can0  155   [8]  00 00 00 00 FF FF 50 38
 (000.000054)  can0  156   [8]  00 00 75 30 00 00 00 00
 (000.009932)  can0  155   [8]  00 00 00 00 FF FF 50 38
 (000.000065)  can0  156   [8]  00 00 75 30 00 00 00 00
 (000.009944)  can0  155   [8]  00 00 00 00 FF FF 50 38
 (000.000060)  can0  156   [8]  00 00 75 30 00 00 00 00
 (000.009928)  can0  155   [8]  00 00 00 00 FF FF 50 38
 (000.000060)  can0  156   [8]  00 00 75 30 00 00 00 00
 (000.009981)  can0  155   [8]  00 00 00 00 FF FF 50 38
 (000.000025)  can0  156   [8]  00 00 75 30 00 00 00 00
 (000.009933)  can0  155   [8]  00 00 00 00 FF FF 50 38
 (000.000065)  can0  156   [8]  00 00 75 30 00 00 00 00
 (000.009939)  can0  155   [8]  00 00 00 00 FF FF 50 38
 (000.000065)  can0  156   [8]  00 00 75 30 00 00 00 00
 (000.009942)  can0  155   [8]  00 00 00 00 FF FF 50 38
 (000.000066)  can0  156   [8]  00 00 75 30 00 00 00 00
 (000.009958)  can0  155   [8]  00 00 00 00 FF FF 50 38
 (000.000057)  can0  156   [8]  00 00 75 30 00 00 00 00
 (000.009937)  can0  155   [8]  00 00 00 00 FF FF 50 38
 (000.000040)  can0  156   [8]  00 00 75 30 00 00 00 00
 (000.009934)  can0  155   [8]  00 00 00 00 FF FF 50 38
 (000.000067)  can0  156   [8]  00 00 75 30 00 00 00 00
 (000.009929)  can0  155   [8]  00 00 00 00 FF FF 50 38
 (000.000076)  can0  156   [8]  00 00 75 30 00 00 00 00
 (000.009925)  can0  155   [8]  00 00 00 00 FF FF 50 38
 (000.000071)  can0  156   [8]  00 00 75 30 00 00 00 00
 (000.009938)  can0  155   [8]  00 00 00 00 FF FF 50 38
 (000.000063)  can0  156   [8]  00 00 75 30 00 00 00 00
 (000.009995)  can0  155   [8]  00 00 00 00 FF FF 50 38
 (000.000027)  can0  156   [8]  00 00 75 30 00 00 00 00
 (000.009910)  can0  155   [8]  00 00 00 00 FF FF 50 38
 (000.000067)  can0  156   [8]  00 00 75 30 00 00 00 00
 (000.009946)  can0  155   [8]  00 00 00 00 FF FF 50 38
 (000.000052)  can0  156   [8]  00 00 75 30 00 00 00 00
 (000.009935)  can0  155   [8]  00 00 00 00 FF FF 50 38
 (000.000062)  can0  156   [8]  00 00 75 30 00 00 00 00
 (000.009943)  can0  155   [8]  00 00 00 00 FF FF 50 38
 (000.000058)  can0  156   [8]  00 00 75 30 00 00 00 00
 (000.009951)  can0  155   [8]  00 00 00 00 FF FF 50 38
 (000.000069)  can0  156   [8]  00 00 75 30 00 00 00 00
 (000.009916)  can0  155   [8]  00 00 00 00 FF FF 50 38
 (000.000068)  can0  156   [8]  00 00 75 30 00 00 00 00
 (000.009953)  can0  155   [8]  00 00 00 00 FF FF 50 38
 (000.000063)  can0  156   [8]  00 00 75 30 00 00 00 00
 (000.009915)  can0  155   [8]  00 00 00 00 FF FF 50 38
 (000.000089)  can0  156   [8]  00 00 75 30 00 00 00 00
 (000.009919)  can0  155   [8]  00 00 00 00 FF FF 50 38
 (000.000098)  can0  156   [8]  00 00 75 30 00 00 00 00
 (000.009925)  can0  155   [8]  00 00 00 00 FF FF 50 38
 (000.000058)  can0  156   [8]  00 00 75 30 00 00 00 00
 (000.009912)  can0  155   [8]  00 00 00 00 FF FF 50 38
 (000.000070)  can0  156   [8]  00 00 75 30 00 00 00 00
 (000.009950)  can0  155   [8]  00 00 00 00 FF FF 50 38
 (000.000071)  can0  156   [8]  00 00 75 30 00 00 00 00
 (000.009908)  can0  155   [8]  00 00 00 00 FF FF 50 38
 (000.000090)  can0  156   [8]  00 00 75 30 00 00 00 00
 (000.009924)  can0  155   [8]  00 00 00 00 FF FF 50 38
 (000.000072)  can0  156   [8]  00 00 75 30 00 00 00 00
 (000.009946)  can0  155   [8]  00 00 00 00 FF FF 50 38
 (000.000056)  can0  156   [8]  00 00 75 30 00 00 00 00
 (000.009912)  can0  155   [8]  00 00 00 00 FF FF 50 38
 (000.000092)  can0  156   [8]  00 00 75 30 00 00 00 00
 (000.009917)  can0  155   [8]  00 00 00 00 FF FF 50 38
 (000.000081)  can0  156   [8]  00 00 75 30 00 00 00 00
 (000.009930)  can0  155   [8]  00 00 00 00 FF FF 50 38
 (000.000067)  can0  156   [8]  00 00 75 30 00 00 00 00
 (000.009914)  can0  155   [8]  00 00 00 00 FF FF 50 38
 (000.000089)  can0  156   [8]  00 00 75 30 00 00 00 00
 (000.009954)  can0  155   [8]  00 00 00 00 FF FF 50 38
 (000.000040)  can0  156   [8]  00 00 75 30 00 00 00 00
 (000.009924)  can0  155   [8]  00 00 00 00 FF FF 50 38
 (000.000081)  can0  156   [8]  00 00 75 30 00 00 00 00
 (000.009924)  can0  155   [8]  00 00 00 00 FF FF 50 38
 (000.000086)  can0  156   [8]  00 00 75 30 00 00 00 00
 (000.009912)  can0  155   [8]  00 00 00 00 FF FF 50 38
 (000.000079)  can0  156   [8]  00 00 75 30 00 00 00 00
 (000.009921)  can0  155   [8]  00 00 00 00 FF FF 50 38
 (000.000080)  can0  156   [8]  00 00 75 30 00 00 00 00
 (000.009922)  can0  155   [8]  00 00 00 00 FF FF 50 38
 (000.000075)  can0  156   [8]  00 00 75 30 00 00 00 00
 (000.009919)  can0  155   [8]  00 00 00 00 FF FF 50 38
 (000.000084)  can0  156   [8]  00 00 75 30 00 00 00 00
 (000.009911)  can0  155   [8]  00 00 00 00 FF FF 50 38
 (000.000089)  can0  156   [8]  00 00 75 30 00 00 00 00
 (000.009914)  can0  155   [8]  00 00 00 00 FF FF 50 38
 (000.000087)  can0  156   [8]  00 00 75 30 00 00 00 00
 (000.009915)  can0  155   [8]  00 00 00 00 FF FF 50 38
 (000.000085)  can0  156   [8]  00 00 75 30 00 00 00 00
 (000.009953)  can0  155   [8]  00 00 00 00 FF FF 50 38
 (000.000047)  can0  156   [8]  00 00 75 30 00 00 00 00
 (000.009930)  can0  155   [8]  00 00 00 00 FF FF 50 38
 (000.000071)  can0  156   [8]  00 00 75 30 00 00 00 00
 (000.009911)  can0  155   [8]  00 00 00 00 FF FF 50 38
 (000.000088)  can0  156   [8]  00 00 75 30 00 00 00 00
 (000.009909)  can0  155   [8]  00 00 00 00 FF FF 50 38
 (000.000091)  can0  156   [8]  00 00 75 30 00 00 00 00
 (000.009941)  can0  155   [8]  00 00 00 00 FF FF 50 38
 (000.000056)  can0  156   [8]  00 00 75 30 00 00 00 00
 (000.009940)  can0  155   [8]  00 00 00 00 FF FF 50 38
 (000.000058)  can0  156   [8]  00 00 75 30 00 00 00 00
 (000.009918)  can0  155   [8]  00 00 00 00 FF FF 50 38
 (000.000094)  can0  156   [8]  00 00 75 30 00 00 00 00
 (000.009912)  can0  155   [8]  00 00 00 00 FF FF 50 38
 (000.000089)  can0  156   [8]  00 00 75 30 00 00 00 00
 (000.009930)  can0  155   [8]  00 00 00 00 FF FF 50 38
 (000.000070)  can0  156   [8]  00 00 75 30 00 00 00 00
 (000.009917)  can0  155   [8]  00 00 00 00 FF FF 50 38
 (000.000078)  can0  156   [8]  00 00 75 30 00 00 00 00
 (000.009953)  can0  155   [8]  00 00 00 00 FF FF 50 38
 (000.000051)  can0  156   [8]  00 00 75 30 00 00 00 00
 (000.009907)  can0  155   [8]  00 00 00 00 FF FF 50 38
 (000.000092)  can0  156   [8]  00 00 75 30 00 00 00 00
 (000.009939)  can0  155   [8]  00 00 00 00 FF FF 50 38
 (000.000063)  can0  156   [8]  00 00 75 30 00 00 00 00
 (000.009901)  can0  155   [8]  00 00 00 00 FF FF 50 38
 (000.000099)  can0  156   [8]  00 00 75 30 00 00 00 00
 (000.009913)  can0  155   [8]  00 00 00 00 FF FF 50 38
 (000.000086)  can0  156   [8]  00 00 75 30 00 00 00 00
 (000.009931)  can0  155   [8]  00 00 00 00 FF FF 50 38
 (000.000069)  can0  156   [8]  00 00 75 30 00 00 00 00
 (000.009923)  can0  155   [8]  00 00 00 00 FF FF 50 38
 (000.000070)  can0  156   [8]  00 00 75 30 00 00 00 00
 (000.009916)  can0  155   [8]  00 00 00 00 FF FF 50 38
 (000.000081)  can0  156   [8]  00 00 75 30 00 00 00 00
 (000.009918)  can0  155   [8]  00 00 00 00 FF FF 50 38
 (000.000102)  can0  156   [8]  00 00 75 30 00 00 00 00
 (000.009900)  can0  155   [8]  00 00 00 00 FF FF 50 38
 (000.000084)  can0  156   [8]  00 00 75 30 00 00 00 00
 (000.009915)  can0  155   [8]  00 00 00 00 FF FF 50 38
 (000.000078)  can0  156   [8]  00 00 75 30 00 00 00 00
 (000.009915)  can0  155   [8]  00 00 00 00 FF FF 50 38
 (000.000094)  can0  156   [8]  00 00 75 30 00 00 00 00
 (000.009909)  can0  155   [8]  00 00 00 00 FF FF 50 38
 (000.000096)  can0  156   [8]  00 00 75 30 00 00 00 00
 (000.009903)  can0  155   [8]  00 00 00 00 FF FF 50 38
 (000.000101)  can0  156   [8]  00 00 75 30 00 00 00 00
 (000.009907)  can0  155   [8]  00 00 00 00 FF FF 50 38
 (000.000096)  can0  156   [8]  00 00 75 30 00 00 00 00
 (000.009908)  can0  155   [8]  00 00 00 00 FF FF 50 38
 (000.000089)  can0  156   [8]  00 00 75 30 00 00 00 00
 (000.009900)  can0  155   [8]  00 00 00 00 FF FF 50 38
 (000.000099)  can0  156   [8]  00 00 75 30 00 00 00 00
 (000.009901)  can0  155   [8]  00 00 00 00 FF FF 50 38
 (000.000105)  can0  156   [8]  00 00 75 30 00 00 00 00
 (000.009915)  can0  155   [8]  00 00 00 00 FF FF 50 38
 (000.000085)  can0  156   [8]  00 00 75 30 00 00 00 00
 (000.009899)  can0  155   [8]  00 00 00 00 FF FF 50 38
 (000.000085)  can0  156   [8]  00 00 75 30 00 00 00 00
 (000.009965)  can0  155   [8]  00 00 00 00 FF FF 50 38
 (000.000044)  can0  156   [8]  00 00 75 30 00 00 00 00
 (000.009902)  can0  155   [8]  00 00 00 00 FF FF 50 38
 (000.000095)  can0  156   [8]  00 00 75 30 00 00 00 00
 (000.009909)  can0  155   [8]  00 00 00 00 FF FF 50 38
 (000.000101)  can0  156   [8]  00 00 75 30 00 00 00 00
 (000.009896)  can0  155   [8]  00 00 00 00 FF FF 50 38
 (000.000101)  can0  156   [8]  00 00 75 30 00 00 00 00
 (000.009914)  can0  155   [8]  00 00 00 00 FF FF 50 38
 (000.000088)  can0  156   [8]  00 00 75 30 00 00 00 00
 (000.009903)  can0  155   [8]  00 00 00 00 FF FF 50 38
 (000.000093)  can0  156   [8]  00 00 75 30 00 00 00 00
 (000.009898)  can0  155   [8]  00 00 00 00 FF FF 50 38
 (000.000093)  can0  156   [8]  00 00 75 30 00 00 00 00
 (000.009917)  can0  155   [8]  00 00 00 00 FF FF 50 38
 (000.000089)  can0  156   [8]  00 00 75 30 00 00 00 00
 (000.009903)  can0  155   [8]  00 00 00 00 FF FF 50 38
 (000.000095)  can0  156   [8]  00 00 75 30 00 00 00 00
 (000.009910)  can0  155   [8]  00 00 00 00 FF FF 50 38
 (000.000101)  can0  156   [8]  00 00 75 30 00 00 00 00
 (000.009922)  can0  155   [8]  00 00 00 00 FF FF 50 38
 (000.000072)  can0  156   [8]  00 00 75 30 00 00 00 00
 (000.009905)  can0  155   [8]  00 00 00 00 FF FF 50 38
 (000.000120)  can0  156   [8]  00 00 75 30 00 00 00 00
 (000.009883)  can0  155   [8]  00 00 00 00 FF FF 50 38
 (000.000118)  can0  156   [8]  00 00 75 30 00 00 00 00
 (000.009875)  can0  155   [8]  00 00 00 00 FF FF 50 38
 (000.000095)  can0  156   [8]  00 00 75 30 00 00 00 00
 (000.009912)  can0  155   [8]  00 00 00 00 FF FF 50 38
 (000.000092)  can0  156   [8]  00 00 75 30 00 00 00 00
 (000.009903)  can0  155   [8]  00 00 00 00 FF FF 50 38
 (000.000097)  can0  156   [8]  00 00 75 30 00 00 00 00
 (000.009899)  can0  155   [8]  00 00 00 00 FF FF 50 38
 (000.000097)  can0  156   [8]  00 00 75 30 00 00 00 00
 (000.009914)  can0  155   [8]  00 00 00 00 FF FF 50 38
 (000.000091)  can0  156   [8]  00 00 75 30 00 00 00 00
 (000.009908)  can0  155   [8]  00 00 00 00 FF FF 50 38
 (000.000096)  can0  156   [8]  00 00 75 30 00 00 00 00
 (000.009939)  can0  155   [8]  00 00 00 00 FF FF 50 38
 (000.000059)  can0  156   [8]  00 00 75 30 00 00 00 00
 (000.009948)  can0  155   [8]  00 00 00 00 FF FF 50 38
 (000.000073)  can0  156   [8]  00 00 75 30 00 00 00 00
 (000.009883)  can0  155   [8]  00 00 00 00 FF FF 50 38
 (000.000098)  can0  156   [8]  00 00 75 30 00 00 00 00
 (000.009904)  can0  155   [8]  00 00 00 00 FF FF 50 38
 (000.000091)  can0  156   [8]  00 00 75 30 00 00 00 00
 (000.009900)  can0  155   [8]  00 00 00 00 FF FF 50 38
 (000.000101)  can0  156   [8]  00 00 75 30 00 00 00 00
 (000.009901)  can0  155   [8]  00 00 00 00 FF FF 50 38
 (000.000127)  can0  156   [8]  00 00 75 30 00 00 00 00
 (000.009906)  can0  155   [8]  00 00 00 00 FF FF 50 38
 (000.000096)  can0  156   [8]  00 00 75 30 00 00 00 00
 (000.009875)  can0  155   [8]  00 00 00 00 FF FF 50 38
 (000.000122)  can0  156   [8]  00 00 75 30 00 00 00 00
 (000.009899)  can0  155   [8]  00 00 00 00 FF FF 50 38
 (000.000074)  can0  156   [8]  00 00 75 30 00 00 00 00
 (000.009898)  can0  155   [8]  00 00 00 00 FF FF 50 38
 (000.000108)  can0  156   [8]  00 00 75 30 00 00 00 00
 (000.009904)  can0  155   [8]  00 00 00 00 FF FF 50 38
 (000.000119)  can0  156   [8]  00 00 75 30 00 00 00 00
 (000.009932)  can0  155   [8]  00 00 00 00 FF FF 50 38
 (000.000075)  can0  156   [8]  00 00 75 30 00 00 00 00
 (000.009866)  can0  155   [8]  00 00 00 00 FF FF 50 38
 (000.000130)  can0  156   [8]  00 00 75 30 00 00 00 00
 (000.009877)  can0  155   [8]  00 00 00 00 FF FF 50 38
 (000.000120)  can0  156   [8]  00 00 75 30 00 00 00 00
 (000.009866)  can0  155   [8]  00 00 00 00 FF FF 50 38
 (000.000132)  can0  156   [8]  00 00 75 30 00 00 00 00
 (000.009875)  can0  155   [8]  00 00 00 00 FF FF 50 38
 (000.000125)  can0  156   [8]  00 00 75 30 00 00 00 00
 (000.009896)  can0  155   [8]  00 00 00 00 FF FF 50 38
 (000.000104)  can0  156   [8]  00 00 75 30 00 00 00 00
 (000.009891)  can0  155   [8]  00 00 00 00 FF FF 50 38
 (000.000112)  can0  156   [8]  00 00 75 30 00 00 00 00
 (000.009870)  can0  155   [8]  00 00 00 00 FF FF 50 38
 (000.000123)  can0  156   [8]  00 00 75 30 00 00 00 00
 (000.009882)  can0  155   [8]  00 00 00 00 FF FF 50 38
 (000.000122)  can0  156   [8]  00 00 75 30 00 00 00 00
 (000.009867)  can0  155   [8]  00 00 00 00 FF FF 50 38
 (000.000116)  can0  156   [8]  00 00 75 30 00 00 00 00
 (000.009962)  can0  155   [8]  00 00 00 00 FF FF 50 38
 (000.000054)  can0  156   [8]  00 00 75 30 00 00 00 00
 (000.009876)  can0  155   [8]  00 00 00 00 FF FF 50 38
 (000.000125)  can0  156   [8]  00 00 75 30 00 00 00 00
 (000.009884)  can0  155   [8]  00 00 00 00 FF FF 50 38
 (000.000116)  can0  156   [8]  00 00 75 30 00 00 00 00
 (000.009873)  can0  155   [8]  00 00 00 00 FF FF 50 38
 (000.000123)  can0  156   [8]  00 00 75 30 00 00 00 00
 (000.009890)  can0  155   [8]  00 00 00 00 FF FF 50 38
 (000.000114)  can0  156   [8]  00 00 75 30 00 00 00 00
 (000.009914)  can0  155   [8]  00 00 00 00 FF FF 50 38
 (000.000082)  can0  156   [8]  00 00 75 30 00 00 00 00
 (000.009900)  can0  155   [8]  00 00 00 00 FF FF 50 38
 (000.000104)  can0  156   [8]  00 00 75 30 00 00 00 00
 (000.009884)  can0  155   [8]  00 00 00 00 FF FF 50 38
 (000.000117)  can0  156   [8]  00 00 75 30 00 00 00 00
 (000.009888)  can0  155   [8]  00 00 00 00 FF FF 50 38
 (000.000116)  can0  156   [8]  00 00 75 30 00 00 00 00
 (000.009884)  can0  155   [8]  00 00 00 00 FF FF 50 38
 (000.000112)  can0  156   [8]  00 00 75 30 00 00 00 00
 (000.009913)  can0  155   [8]  00 00 00 00 FF FF 50 38
 (000.000088)  can0  156   [8]  00 00 75 30 00 00 00 00
 (000.009911)  can0  155   [8]  00 00 00 00 FF FF 50 38
 (000.000084)  can0  156   [8]  00 00 75 30 00 00 00 00
 (000.009888)  can0  155   [8]  00 00 00 00 FF FF 50 38
 (000.000115)  can0  156   [8]  00 00 75 30 00 00 00 00
 (000.009884)  can0  155   [8]  00 00 00 00 FF FF 50 38
 (000.000117)  can0  156   [8]  00 00 75 30 00 00 00 00
 (000.009892)  can0  155   [8]  00 00 00 00 FF FF 50 38
 (000.000118)  can0  156   [8]  00 00 75 30 00 00 00 00
 (000.009887)  can0  155   [8]  00 00 00 00 FF FF 50 38
 (000.000101)  can0  156   [8]  00 00 75 30 00 00 00 00
 (000.009903)  can0  155   [8]  00 00 00 00 FF FF 50 38
 (000.000122)  can0  156   [8]  00 00 75 30 00 00 00 00
 (000.009877)  can0  155   [8]  00 00 00 00 FF FF 50 38
 (000.000103)  can0  156   [8]  00 00 75 30 00 00 00 00
 (000.009899)  can0  155   [8]  00 00 00 00 FF FF 50 38
 (000.000099)  can0  156   [8]  00 00 75 30 00 00 00 00
 (000.009895)  can0  155   [8]  00 00 00 00 FF FF 50 38
 (000.000112)  can0  156   [8]  00 00 75 30 00 00 00 00
 (000.009887)  can0  155   [8]  00 00 00 00 FF FF 50 38
 (000.000100)  can0  156   [8]  00 00 75 30 00 00 00 00
 (000.009908)  can0  155   [8]  00 00 00 00 FF FF 50 38
 (000.000100)  can0  156   [8]  00 00 75 30 00 00 00 00
 (000.009890)  can0  155   [8]  00 00 00 00 FF FF 50 38
 (000.000123)  can0  156   [8]  00 00 75 30 00 00 00 00
 (000.009869)  can0  155   [8]  00 00 00 00 FF FF 50 38
 (000.000127)  can0  156   [8]  00 00 75 30 00 00 00 00
 (000.009897)  can0  155   [8]  00 00 00 00 FF FF 50 38
 (000.000110)  can0  156   [8]  00 00 75 30 00 00 00 00
 (000.009888)  can0  155   [8]  00 00 00 00 FF FF 50 38
 (000.000091)  can0  156   [8]  00 00 75 30 00 00 00 00
 (000.009904)  can0  155   [8]  00 00 00 00 FF FF 50 38
 (000.000106)  can0  156   [8]  00 00 75 30 00 00 00 00
 (000.009894)  can0  155   [8]  00 00 00 00 FF FF 50 38
 (000.000107)  can0  156   [8]  00 00 75 30 00 00 00 00
 (000.009884)  can0  155   [8]  00 00 00 00 FF FF 50 38
 (000.000120)  can0  156   [8]  00 00 75 30 00 00 00 00
 (000.009886)  can0  155   [8]  00 00 00 00 FF FF 50 38
 (000.000116)  can0  156   [8]  00 00 75 30 00 00 00 00
 (000.009923)  can0  155   [8]  00 00 00 00 FF FF 50 38
 (000.000062)  can0  156   [8]  00 00 75 30 00 00 00 00
 (000.009910)  can0  155   [8]  00 00 00 00 FF FF 50 38
 (000.000100)  can0  156   [8]  00 00 75 30 00 00 00 00
 (000.009911)  can0  155   [8]  00 00 00 00 FF FF 50 38
 (000.000088)  can0  156   [8]  00 00 75 30 00 00 00 00
 (000.009884)  can0  155   [8]  00 00 00 00 FF FF 50 38
 (000.000118)  can0  156   [8]  00 00 75 30 00 00 00 00
 (000.009881)  can0  155   [8]  00 00 00 00 FF FF 50 38
 (000.000128)  can0  156   [8]  00 00 75 30 00 00 00 00
 (000.009912)  can0  155   [8]  00 00 00 00 FF FF 50 38
 (000.000070)  can0  156   [8]  00 00 75 30 00 00 00 00
 (000.009912)  can0  155   [8]  00 00 00 00 FF FF 50 38
 (000.000097)  can0  156   [8]  00 00 75 30 00 00 00 00
 (000.009891)  can0  155   [8]  00 00 00 00 FF FF 50 38
 (000.000111)  can0  156   [8]  00 00 75 30 00 00 00 00
 (000.009886)  can0  155   [8]  00 00 00 00 FF FF 50 38
 (000.000110)  can0  156   [8]  00 00 75 30 00 00 00 00
 (000.009903)  can0  155   [8]  00 00 00 00 FF FF 50 38
 (000.000091)  can0  156   [8]  00 00 75 30 00 00 00 00
 (000.009937)  can0  155   [8]  00 00 00 00 FF FF 50 38
 (000.000063)  can0  156   [8]  00 00 75 30 00 00 00 00
 (000.009894)  can0  155   [8]  00 00 00 00 FF FF 50 38
 (000.000118)  can0  156   [8]  00 00 75 30 00 00 00 00
 (000.009886)  can0  155   [8]  00 00 00 00 FF FF 50 38
 (000.000116)  can0  156   [8]  00 00 75 30 00 00 00 00
 (000.009899)  can0  155   [8]  00 00 00 00 FF FF 50 38
 (000.000105)  can0  156   [8]  00 00 75 30 00 00 00 00
 (000.009886)  can0  155   [8]  00 00 00 00 FF FF 50 38
 (000.000098)  can0  156   [8]  00 00 75 30 00 00 00 00
 (000.009905)  can0  155   [8]  00 00 00 00 FF FF 50 38
 (000.000102)  can0  156   [8]  00 00 75 30 00 00 00 00
 (000.009894)  can0  155   [8]  00 00 00 00 FF FF 50 38
 (000.000112)  can0  156   [8]  00 00 75 30 00 00 00 00
 (000.009884)  can0  155   [8]  00 00 00 00 FF FF 50 38
 (000.000121)  can0  156   [8]  00 00 75 30 00 00 00 00
 (000.009873)  can0  155   [8]  00 00 00 00 FF FF 50 38
 (000.000109)  can0  156   [8]  00 00 75 30 00 00 00 00
 (000.009906)  can0  155   [8]  00 00 00 00 FF FF 50 38
 (000.000103)  can0  156   [8]  00 00 75 30 00 00 00 00
 (000.009930)  can0  155   [8]  00 00 00 00 FF FF 50 38
 (000.000070)  can0  156   [8]  00 00 75 30 00 00 00 00
 (000.009896)  can0  155   [8]  00 00 00 00 FF FF 50 38
 (000.000121)  can0  156   [8]  00 00 75 30 00 00 00 00
 (000.009877)  can0  155   [8]  00 00 00 00 FF FF 50 38
 (000.000107)  can0  156   [8]  00 00 75 30 00 00 00 00
 (000.009898)  can0  155   [8]  00 00 00 00 FF FF 50 38
 (000.000103)  can0  156   [8]  00 00 75 30 00 00 00 00
 (000.009946)  can0  155   [8]  00 00 00 00 FF FF 50 38
 (000.000056)  can0  156   [8]  00 00 75 30 00 00 00 00
 (000.009891)  can0  155   [8]  00 00 00 00 FF FF 50 38
 (000.000107)  can0  156   [8]  00 00 75 30 00 00 00 00
 (000.009904)  can0  155   [8]  00 00 00 00 FF FF 50 38
 (000.000092)  can0  156   [8]  00 00 75 30 00 00 00 00
 (000.009907)  can0  155   [8]  00 00 00 00 FF FF 50 38
 (000.000094)  can0  156   [8]  00 00 75 30 00 00 00 00
 (000.009900)  can0  155   [8]  00 00 00 00 FF FF 50 38
 (000.000099)  can0  156   [8]  00 00 75 30 00 00 00 00
 (000.009910)  can0  155   [8]  00 00 00 00 FF FF 50 38
 (000.000095)  can0  156   [8]  00 00 75 30 00 00 00 00
 (000.009918)  can0  155   [8]  00 00 00 00 FF FF 50 38
 (000.000085)  can0  156   [8]  00 00 75 30 00 00 00 00
 (000.009895)  can0  155   [8]  00 00 00 00 FF FF 50 38
 (000.000097)  can0  156   [8]  00 00 75 30 00 00 00 00
 (000.009955)  can0  155   [8]  00 00 00 00 FF FF 50 38
 (000.000099)  can0  156   [8]  00 00 75 30 00 00 00 00
 (000.009844)  can0  155   [8]  00 00 00 00 FF FF 50 38
 (000.000106)  can0  156   [8]  00 00 75 30 00 00 00 00
 (000.009919)  can0  155   [8]  00 00 00 00 FF FF 50 38
 (000.000086)  can0  156   [8]  00 00 75 30 00 00 00 00
 (000.009886)  can0  155   [8]  00 00 00 00 FF FF 50 38
 (000.000120)  can0  156   [8]  00 00 75 30 00 00 00 00
 (000.009891)  can0  155   [8]  00 00 00 00 FF FF 50 38
 (000.000104)  can0  156   [8]  00 00 75 30 00 00 00 00
 (000.009943)  can0  155   [8]  00 00 00 00 FF FF 50 38
 (000.000052)  can0  156   [8]  00 00 75 30 00 00 00 00
 (000.009907)  can0  155   [8]  00 00 00 00 FF FF 50 38
 (000.000098)  can0  156   [8]  00 00 75 30 00 00 00 00
 (000.009905)  can0  155   [8]  00 00 00 00 FF FF 50 38
 (000.000106)  can0  156   [8]  00 00 75 30 00 00 00 00
 (000.009888)  can0  155   [8]  00 00 00 00 FF FF 50 38
 (000.000109)  can0  156   [8]  00 00 75 30 00 00 00 00
 (000.009895)  can0  155   [8]  00 00 00 00 FF FF 50 38
 (000.000096)  can0  156   [8]  00 00 75 30 00 00 00 00
 (000.009913)  can0  155   [8]  00 00 00 00 FF FF 50 38
 (000.000087)  can0  156   [8]  00 00 75 30 00 00 00 00
 (000.009900)  can0  155   [8]  00 00 00 00 FF FF 50 38
 (000.000113)  can0  156   [8]  00 00 75 30 00 00 00 00
 (000.009881)  can0  155   [8]  00 00 00 00 FF FF 50 38
 (000.000119)  can0  156   [8]  00 00 75 30 00 00 00 00
 (000.009904)  can0  155   [8]  00 00 00 00 FF FF 50 38
 (000.000086)  can0  156   [8]  00 00 75 30 00 00 00 00
 (000.009899)  can0  155   [8]  00 00 00 00 FF FF 50 38
 (000.000109)  can0  156   [8]  00 00 75 30 00 00 00 00
 (000.009901)  can0  155   [8]  00 00 00 00 FF FF 50 38
 (000.000098)  can0  156   [8]  00 00 75 30 00 00 00 00
 (000.009919)  can0  155   [8]  00 00 00 00 FF FF 50 38
 (000.000078)  can0  156   [8]  00 00 75 30 00 00 00 00
 (000.009884)  can0  155   [8]  00 00 00 00 FF FF 50 38
 (000.000118)  can0  156   [8]  00 00 75 30 00 00 00 00
 (000.009922)  can0  155   [8]  00 00 00 00 FF FF 50 38
 (000.000069)  can0  156   [8]  00 00 75 30 00 00 00 00
 (000.009913)  can0  155   [8]  00 00 00 00 FF FF 50 38
 (000.000098)  can0  156   [8]  00 00 75 30 00 00 00 00
 (000.009918)  can0  155   [8]  00 00 00 00 FF FF 50 38
 (000.000084)  can0  156   [8]  00 00 75 30 00 00 00 00
 (000.009899)  can0  155   [8]  00 00 00 00 FF FF 50 38
 (000.000103)  can0  156   [8]  00 00 75 30 00 00 00 00
 (000.009885)  can0  155   [8]  00 00 00 00 FF FF 50 38
 (000.000119)  can0  156   [8]  00 00 75 30 00 00 00 00
 (000.009897)  can0  155   [8]  00 00 00 00 FF FF 50 38
 (000.000101)  can0  156   [8]  00 00 75 30 00 00 00 00
 (000.009892)  can0  155   [8]  00 00 00 00 FF FF 50 38
 (000.000096)  can0  156   [8]  00 00 75 30 00 00 00 00
 (000.009913)  can0  155   [8]  00 00 00 00 FF FF 50 38
 (000.000095)  can0  156   [8]  00 00 75 30 00 00 00 00
 (000.009900)  can0  155   [8]  00 00 00 00 FF FF 50 38
 (000.000097)  can0  156   [8]  00 00 75 30 00 00 00 00
 (000.009890)  can0  155   [8]  00 00 00 00 FF FF 50 38
 (000.000124)  can0  156   [8]  00 00 75 30 00 00 00 00
 (000.009884)  can0  155   [8]  00 00 00 00 FF FF 50 38
 (000.000109)  can0  156   [8]  00 00 75 30 00 00 00 00
 (000.009904)  can0  155   [8]  00 00 00 00 FF FF 50 38
 (000.000093)  can0  156   [8]  00 00 75 30 00 00 00 00
 (000.009920)  can0  155   [8]  00 00 00 00 FF FF 50 38
 (000.000081)  can0  156   [8]  00 00 75 30 00 00 00 00
 (000.009898)  can0  155   [8]  00 00 00 00 FF FF 50 38
 (000.000103)  can0  156   [8]  00 00 75 30 00 00 00 00
 (000.009916)  can0  155   [8]  00 00 00 00 FF FF 50 38
 (000.000092)  can0  156   [8]  00 00 75 30 00 00 00 00
 (000.009909)  can0  155   [8]  00 00 00 00 FF FF 50 38
 (000.000090)  can0  156   [8]  00 00 75 30 00 00 00 00
 (000.006675)  can0  151   [2]  80 00
 (000.000151)  can0  155   [8]  00 00 00 00 FF FF 79 A5
 (000.000075)  can0  156   [8]  00 00 86 5B 00 00 00 00
 (000.000112)  can0  157   [8]  00 00 39 35 00 00 00 00
 (000.000139)  can0  151   [8]  01 01 1D 00 00 00 00 00
 (000.000109)  can0  155   [8]  00 00 00 00 FF FF 79 A5
 (000.000134)  can0  156   [8]  00 00 86 5B 00 00 00 00
 (000.000118)  can0  157   [8]  00 00 32 C8 00 00 00 00
 (000.000118)  can0  151   [8]  01 01 1D 00 00 00 00 00
 (000.000118)  can0  155   [8]  00 00 00 00 FF FF 79 A5
 (000.000115)  can0  156   [8]  00 00 86 5B 00 00 00 00
 (000.000132)  can0  157   [8]  00 00 32 C8 00 00 00 00
 (000.000116)  can0  151   [8]  01 01 1D 00 00 00 00 00
 (000.000134)  can0  155   [8]  00 00 00 00 FF FF 79 A5
 (000.000114)  can0  156   [8]  00 00 86 5B 00 00 00 00
 (000.000125)  can0  157   [8]  00 00 2C 5A 00 00 00 00
 (000.000110)  can0  151   [8]  01 01 1D 00 00 00 00 00
 (000.000141)  can0  155   [8]  00 00 00 00 FF FF 79 A5
 (000.000115)  can0  156   [8]  00 00 86 5B 00 00 00 00
 (000.000111)  can0  157   [8]  00 00 2C 5A 00 00 00 00
 (000.000128)  can0  151   [8]  01 01 1D 00 00 00 00 00
 (000.000120)  can0  155   [8]  00 00 00 00 FF FF 79 A5
 (000.000130)  can0  156   [8]  00 00 86 5B 00 00 00 00
 (000.000111)  can0  157   [8]  00 00 25 EC 00 00 00 00
 (000.000130)  can0  151   [8]  01 01 1D 00 00 00 00 00
 (000.000119)  can0  155   [8]  00 00 00 00 FF FF 79 A5
 (000.000132)  can0  156   [8]  00 00 86 5B 00 00 00 00
 (000.000129)  can0  150   [8]  01 00 00 00 00 00 00 00
 (000.000114)  can0  157   [8]  00 00 1F 7E 00 00 00 00
 (000.000107)  can0  151   [8]  01 01 1D 00 00 00 00 00
 (000.000121)  can0  155   [8]  00 00 00 00 FF FF 79 A5
 (000.000133)  can0  156   [8]  00 00 86 5B 00 00 00 00
 (000.000116)  can0  157   [8]  00 00 1F 7E 00 00 00 00
 (000.000135)  can0  151   [8]  01 01 1D 00 00 00 00 00
 (000.000137)  can0  155   [8]  00 00 00 00 FF FF 79 A5
 (000.000089)  can0  156   [8]  00 00 86 5B 00 00 00 00
 (000.000129)  can0  157   [8]  00 00 19 10 00 00 00 00
 (000.000116)  can0  151   [8]  01 01 1D 00 00 00 00 00
 (000.000130)  can0  155   [8]  00 00 00 00 FF FF 79 A5
 (000.000135)  can0  156   [8]  00 00 86 5B 00 00 00 00
 (000.000097)  can0  157   [8]  00 00 19 10 00 00 00 00
 (000.000132)  can0  151   [8]  01 01 1D 00 00 00 00 00
 (000.000177)  can0  155   [8]  00 00 00 00 FF FF 79 A5
 (000.000066)  can0  156   [8]  00 00 86 5B 00 00 00 00
 (000.000114)  can0  157   [8]  00 00 12 A3 00 00 00 00
 (000.000132)  can0  151   [8]  01 01 1D 00 00 00 00 00
 (000.000113)  can0  155   [8]  00 00 00 00 FF FF 79 A5
 (000.000114)  can0  156   [8]  00 00 86 5B 00 00 00 00
 (000.000135)  can0  157   [8]  00 00 0C 35 00 00 00 00
 (000.000114)  can0  151   [8]  01 01 1D 00 00 00 00 00
 (000.000127)  can0  155   [8]  00 00 00 00 FF FF 79 A5
 (000.000124)  can0  156   [8]  00 00 86 5B 00 00 00 00
 (000.000113)  can0  157   [8]  00 00 0C 35 00 00 00 00
 (000.000125)  can0  151   [8]  01 01 1D 00 00 00 00 00
 (000.000121)  can0  155   [8]  00 00 00 00 FF FF 79 A5
 (000.000114)  can0  156   [8]  00 00 86 5B 00 00 00 00
 (000.000126)  can0  157   [8]  00 00 05 C7 00 00 00 00
 (000.000114)  can0  151   [8]  01 01 1D 00 00 00 00 00
 (000.000137)  can0  155   [8]  00 00 00 00 FF FF 79 A5
 (000.000115)  can0  156   [8]  00 00 86 5B 00 00 00 00
 (000.000129)  can0  157   [8]  00 00 05 C7 00 00 00 00
 (000.000113)  can0  151   [8]  01 01 1D 00 00 00 00 00
 (000.000128)  can0  155   [8]  00 00 00 00 FF FF 79 A5
 (000.000119)  can0  156   [8]  00 00 86 5B 00 00 00 00
 (000.000116)  can0  157   [8]  FF FF FF 59 00 00 00 00
 (000.000116)  can0  151   [8]  01 01 19 00 00 00 00 00
 (000.000124)  can0  155   [8]  00 00 00 00 FF FF 79 A5
 (000.000145)  can0  156   [8]  00 00 86 5B 00 00 00 00
 (000.000107)  can0  157   [8]  FF FF 81 E0 00 00 00 00
 (000.004961)  can0  150   [8]  01 00 00 00 00 00 00 00
 (000.009998)  can0  150   [8]  01 00 00 00 00 00 00 00
 (000.001942)  can0  151   [8]  01 01 19 00 00 00 00 00
 (000.000131)  can0  155   [8]  00 00 00 00 FF FF 79 A5
 (000.000099)  can0  156   [8]  00 00 86 5B 00 00 00 00
 (000.000122)  can0  157   [8]  FF FF 7C 55 00 00 00 00
 (000.007733)  can0  150   [8]  01 00 00 00 00 00 00 00
 (000.010061)  can0  150   [8]  01 00 00 00 00 00 00 00
 (000.001403)  can0  151   [8]  01 01 19 00 00 00 00 00
 (000.000115)  can0  155   [8]  00 00 00 00 FF FF 79 A5
 (000.000134)  can0  156   [8]  00 00 86 5B 00 00 00 00
 (000.000113)  can0  157   [8]  FF FF 79 A5 00 00 00 00
 (000.008149)  can0  150   [8]  01 00 00 00 00 00 00 00
 (000.010050)  can0  150   [8]  01 00 00 00 00 00 00 00
 (000.002162)  can0  151   [8]  01 01 19 00 00 00 00 00
 (000.000109)  can0  155   [8]  00 00 00 00 FF FF 79 A5
 (000.000134)  can0  156   [8]  00 00 86 5B 00 00 00 00
 (000.000115)  can0  157   [8]  FF FF 79 A5 00 00 00 00
 (000.007425)  can0  150   [8]  01 00 00 00 00 00 00 00
 (000.010009)  can0  150   [8]  01 00 00 00 00 00 00 00
 (000.001690)  can0  151   [8]  01 01 19 00 00 00 00 00
 (000.000131)  can0  155   [8]  00 00 00 00 FF FF 79 A5
 (000.000108)  can0  156   [8]  00 00 86 5B 00 00 00 00
 (000.000115)  can0  157   [8]  FF FF 7F 30 00 00 00 00
 (000.008000)  can0  150   [8]  01 00 00 00 00 00 00 00
 (000.009961)  can0  150   [8]  01 00 00 00 00 00 00 00
 (000.001413)  can0  151   [8]  01 01 19 00 00 00 00 00
 (000.000121)  can0  155   [8]  00 00 00 00 FF FF 79 A5
 (000.000126)  can0  156   [8]  00 00 86 5B 00 00 00 00
 (000.000116)  can0  157   [8]  FF FF 7F 30 00 00 00 00
 (000.008199)  can0  150   [8]  01 00 00 00 00 00 00 00
 (000.010021)  can0  150   [8]  01 00 00 00 00 00 00 00
 (000.001782)  can0  151   [8]  01 01 19 00 00 00 00 00
 (000.000147)  can0  155   [8]  00 00 00 00 FF FF 79 A5
 (000.000099)  can0  156   [8]  00 00 86 5B 00 00 00 00
 (000.000109)  can0  157   [8]  FF FF 84 BB 00 00 00 00
 (000.007863)  can0  150   [8]  01 00 00 00 00 00 00 00
 (000.010049)  can0  150   [8]  01 00 00 00 00 00 00 00
 (000.001730)  can0  151   [8]  01 01 19 00 00 00 00 00
 (000.000153)  can0  155   [8]  00 00 00 00 FF FF 79 A5
 (000.000076)  can0  156   [8]  00 00 86 5B 00 00 00 00
 (000.000109)  can0  157   [8]  FF FF 8A 45 00 00 00 00
 (000.007889)  can0  150   [8]  01 00 00 00 00 00 00 00
 (000.010016)  can0  150   [8]  01 00 00 00 00 00 00 00
 (000.002757)  can0  151   [8]  01 01 19 00 00 00 00 00
 (000.000153)  can0  155   [8]  00 00 00 00 FF FF 79 A5
 (000.000086)  can0  156   [8]  00 00 86 5B 00 00 00 00
 (000.000110)  can0  157   [8]  FF FF 8A 45 00 00 00 00
 (000.006873)  can0  150   [8]  01 00 00 00 00 00 00 00
 (000.010005)  can0  150   [8]  01 00 00 00 00 00 00 00
 (000.001577)  can0  151   [8]  01 01 19 00 00 00 00 00
 (000.000132)  can0  155   [8]  00 00 00 00 FF FF 79 A5
 (000.000117)  can0  156   [8]  00 00 86 5B 00 00 00 00
 (000.000133)  can0  157   [8]  FF FF 8F D0 00 00 00 00
 (000.008049)  can0  150   [8]  01 00 00 00 00 00 00 00
 (000.009983)  can0  150   [8]  01 00 00 00 00 00 00 00
 (000.001729)  can0  151   [8]  01 01 19 00 00 00 00 00
 (000.000113)  can0  155   [8]  00 00 00 00 FF FF 79 A5
 (000.000117)  can0  156   [8]  00 00 86 5B 00 00 00 00
 (000.000137)  can0  157   [8]  FF FF 8F D0 00 00 00 00
 (000.007916)  can0  150   [8]  01 00 00 00 00 00 00 00
 (000.010023)  can0  150   [8]  01 00 00 00 00 00 00 00
 (000.001530)  can0  151   [8]  01 01 19 00 00 00 00 00
 (000.000117)  can0  155   [8]  00 00 00 00 FF FF 79 A5
 (000.000113)  can0  156   [8]  00 00 86 5B 00 00 00 00
 (000.000135)  can0  157   [8]  FF FF 95 5B 00 00 00 00
 (000.008081)  can0  150   [8]  01 00 00 00 00 00 00 00
 (000.010040)  can0  150   [8]  01 00 00 00 00 00 00 00
 (000.002021)  can0  151   [8]  01 01 19 00 00 00 00 00
 (000.000120)  can0  155   [8]  00 00 00 00 FF FF 79 A5
 (000.000117)  can0  156   [8]  00 00 86 5B 00 00 00 00
 (000.000122)  can0  157   [8]  FF FF 9A E6 00 00 00 00
 (000.007575)  can0  150   [8]  01 00 00 00 00 00 00 00
 (000.010008)  can0  150   [8]  01 00 00 00 00 00 00 00
 (000.001679)  can0  151   [8]  01 01 19 00 00 00 00 00
 (000.000117)  can0  155   [8]  00 00 00 00 FF FF 79 A5
 (000.000123)  can0  156   [8]  00 00 86 5B 00 00 00 00
 (000.000138)  can0  157   [8]  FF FF 9A E6 00 00 00 00
 (000.007939)  can0  150   [8]  01 00 00 00 00 00 00 00
 (000.010006)  can0  150   [8]  01 00 00 00 00 00 00 00
 (000.001357)  can0  151   [8]  01 01 19 00 00 00 00 00
 (000.000112)  can0  155   [8]  00 00 00 00 FF FF 79 A5
 (000.000131)  can0  156   [8]  00 00 86 5B 00 00 00 00
 (000.000122)  can0  157   [8]  FF FF A0 71 00 00 00 00
 (000.008271)  can0  150   [8]  01 00 00 00 00 00 00 00
 (000.009994)  can0  150   [8]  01 00 00 00 00 00 00 00
 (000.001526)  can0  151   [8]  01 01 19 00 00 00 00 00
 (000.000114)  can0  155   [8]  00 00 00 00 FF FF 79 A5
 (000.000137)  can0  156   [8]  00 00 86 5B 00 00 00 00
 (000.000151)  can0  157   [8]  FF FF A0 71 00 00 00 00
 (000.008083)  can0  150   [8]  01 00 00 00 00 00 00 00
 (000.009988)  can0  150   [8]  01 00 00 00 00 00 00 00
 (000.001937)  can0  151   [8]  01 01 19 00 00 00 00 00
 (000.000085)  can0  155   [8]  00 00 00 00 FF FF 79 A5
 (000.000109)  can0  156   [8]  00 00 86 5B 00 00 00 00
 (000.000135)  can0  157   [8]  FF FF A5 FB 00 00 00 00
 (000.007735)  can0  150   [8]  01 00 00 00 00 00 00 00
 (000.010019)  can0  150   [8]  01 00 00 00 00 00 00 00
 (000.001440)  can0  151   [8]  01 01 19 00 00 00 00 00
 (000.000124)  can0  155   [8]  00 00 00 00 FF FF 79 A5
 (000.000117)  can0  156   [8]  00 00 86 5B 00 00 00 00
 (000.000115)  can0  157   [8]  FF FF AB 86 00 00 00 00
 (000.008198)  can0  150   [8]  01 00 00 00 00 00 00 00
 (000.010008)  can0  150   [8]  01 00 00 00 00 00 00 00
 (000.001427)  can0  151   [8]  01 01 19 00 00 00 00 00
 (000.000135)  can0  155   [8]  00 00 00 00 FF FF 79 A5
 (000.000107)  can0  156   [8]  00 00 86 5B 00 00 00 00
 (000.000127)  can0  157   [8]  FF FF AB 86 00 00 00 00
 (000.008180)  can0  150   [8]  01 00 00 00 00 00 00 00
 (000.010060)  can0  150   [8]  01 00 00 00 00 00 00 00
 (000.001872)  can0  151   [8]  01 01 19 00 00 00 00 00
 (000.000104)  can0  155   [8]  00 00 00 00 FF FF 79 A5
 (000.000136)  can0  156   [8]  00 00 86 5B 00 00 00 00
 (000.000113)  can0  157   [8]  FF FF B1 11 00 00 00 00
 (000.007735)  can0  150   [8]  01 00 00 00 00 00 00 00
 (000.010000)  can0  150   [8]  01 00 00 00 00 00 00 00
 (000.001645)  can0  151   [8]  01 01 19 00 00 00 00 00
 (000.000122)  can0  155   [8]  00 00 00 00 FF FF 79 A5
 (000.000147)  can0  156   [8]  00 00 86 5B 00 00 00 00
 (000.000099)  can0  157   [8]  FF FF B1 11 00 00 00 00
 (000.007981)  can0  150   [8]  01 00 00 00 00 00 00 00
 (000.010004)  can0  150   [8]  01 00 00 00 00 00 00 00
 (000.001489)  can0  151   [8]  01 01 19 00 00 00 00 00
 (000.000114)  can0  155   [8]  00 00 00 00 FF FF 79 A5
 (000.000133)  can0  156   [8]  00 00 86 5B 00 00 00 00
 (000.000108)  can0  157   [8]  FF FF B6 9C 00 00 00 00
 (000.008195)  can0  150   [8]  01 00 00 00 00 00 00 00
 (000.010015)  can0  150   [8]  01 00 00 00 00 00 00 00
 (000.001599)  can0  151   [8]  01 01 19 00 00 00 00 00
 (000.000115)  can0  155   [8]  00 00 00 00 FF FF 79 A5
 (000.000148)  can0  156   [8]  00 00 86 5B 00 00 00 00
 (000.000100)  can0  157   [8]  FF FF BC 27 00 00 00 00
 (000.007989)  can0  150   [8]  01 00 00 00 00 00 00 00
 (000.009993)  can0  150   [8]  01 00 00 00 00 00 00 00
 (000.001755)  can0  151   [8]  01 01 19 00 00 00 00 00
 (000.000169)  can0  155   [8]  00 00 00 00 FF FF 79 A5
 (000.000082)  can0  156   [8]  00 00 86 5B 00 00 00 00
 (000.000111)  can0  157   [8]  FF FF BC 27 00 00 00 00
 (000.007884)  can0  150   [8]  01 00 00 00 00 00 00 00
 (000.009998)  can0  150   [8]  01 00 00 00 00 00 00 00
 (000.001983)  can0  151   [8]  01 01 19 00 00 00 00 00
 (000.000109)  can0  155   [8]  00 00 00 00 FF FF 79 A5
 (000.000128)  can0  156   [8]  00 00 86 5B 00 00 00 00
 (000.000112)  can0  157   [8]  FF FF C1 B1 00 00 00 00
 (000.007701)  can0  150   [8]  01 00 00 00 00 00 00 00
 (000.009969)  can0  150   [8]  01 00 00 00 00 00 00 00
 (000.001508)  can0  151   [8]  01 01 19 00 00 00 00 00
 (000.000135)  can0  155   [8]  00 00 00 00 FF FF 79 A5
 (000.000106)  can0  156   [8]  00 00 86 5B 00 00 00 00
 (000.000174)  can0  157   [8]  FF FF C1 B1 00 00 00 00
 (000.008125)  can0  150   [8]  01 00 00 00 00 00 00 00
 (000.009946)  can0  150   [8]  01 00 00 00 00 00 00 00
 (000.001413)  can0  151   [8]  01 01 19 00 00 00 00 00
 (000.000138)  can0  155   [8]  00 00 00 00 FF FF 79 A5
 (000.000100)  can0  156   [8]  00 00 86 5B 00 00 00 00
 (000.000135)  can0  157   [8]  FF FF C7 3C 00 00 00 00
 (000.008225)  can0  150   [8]  01 00 00 00 00 00 00 00
 (000.010055)  can0  150   [8]  01 00 00 00 00 00 00 00
 (000.001742)  can0  151   [8]  01 01 19 00 00 00 00 00
 (000.000124)  can0  155   [8]  00 00 00 00 FF FF 79 A5
 (000.000128)  can0  156   [8]  00 00 86 5B 00 00 00 00
 (000.000098)  can0  157   [8]  FF FF CC C7 00 00 00 00
 (000.007837)  can0  150   [8]  01 00 00 00 00 00 00 00
 (000.010008)  can0  150   [8]  01 00 00 00 00 00 00 00
 (000.002649)  can0  151   [8]  01 01 19 00 00 00 00 00
 (000.000123)  can0  155   [8]  00 00 00 00 FF FF 79 A5
 (000.000150)  can0  156   [8]  00 00 86 5B 00 00 00 00
 (000.000080)  can0  157   [8]  FF FF CC C7 00 00 00 00
 (000.006994)  can0  150   [8]  01 00 00 00 00 00 00 00
 (000.010022)  can0  150   [8]  01 00 00 00 00 00 00 00
 (000.001832)  can0  151   [8]  01 01 19 00 00 00 00 00
 (000.000115)  can0  155   [8]  00 00 00 00 FF FF 79 A5
 (000.000129)  can0  156   [8]  00 00 86 5B 00 00 00 00
 (000.000119)  can0  157   [8]  FF FF D2 52 00 00 00 00
 (000.007818)  can0  150   [8]  01 00 00 00 00 00 00 00
 (000.009975)  can0  150   [8]  01 00 00 00 00 00 00 00
 (000.001297)  can0  151   [8]  01 01 19 00 00 00 00 00
 (000.000104)  can0  155   [8]  00 00 00 00 FF FF 79 A5
 (000.000116)  can0  156   [8]  00 00 86 5B 00 00 00 00
 (000.000121)  can0  157   [8]  FF FF D2 52 00 00 00 00
 (000.008370)  can0  150   [8]  01 00 00 00 00 00 00 00
 (000.009997)  can0  150   [8]  01 00 00 00 00 00 00 00
 (000.001911)  can0  151   [8]  01 01 19 00 00 00 00 00
 (000.000113)  can0  155   [8]  00 00 00 00 FF FF 79 A5
 (000.000119)  can0  156   [8]  00 00 86 5B 00 00 00 00
 (000.000125)  can0  157   [8]  FF FF D7 DD 00 00 00 00
 (000.007727)  can0  150   [8]  01 00 00 00 00 00 00 00
 (000.010053)  can0  150   [8]  01 00 00 00 00 00 00 00
 (000.002490)  can0  151   [8]  01 01 19 00 00 00 00 00
 (000.000133)  can0  155   [8]  00 00 00 00 FF FF 79 A5
 (000.000116)  can0  156   [8]  00 00 86 5B 00 00 00 00
 (000.000125)  can0  157   [8]  FF FF DD 67 00 00 00 00
 (000.007083)  can0  150   [8]  01 00 00 00 00 00 00 00
 (000.010014)  can0  150   [8]  01 00 00 00 00 00 00 00
 (000.001537)  can0  151   [8]  01 01 19 00 00 00 00 00
 (000.000117)  can0  155   [8]  00 00 00 00 FF FF 79 A5
 (000.000134)  can0  156   [8]  00 00 86 5B 00 00 00 00
 (000.000114)  can0  157   [8]  FF FF DD 67 00 00 00 00
 (000.008101)  can0  150   [8]  01 00 00 00 00 00 00 00
 (000.009997)  can0  150   [8]  01 00 00 00 00 00 00 00
 (000.001564)  can0  151   [8]  01 01 19 00 00 00 00 00
 (000.000113)  can0  155   [8]  00 00 00 00 FF FF 79 A5
 (000.000124)  can0  156   [8]  00 00 86 5B 00 00 00 00
 (000.000128)  can0  157   [8]  FF FF E2 F2 00 00 00 00
 (000.008105)  can0  150   [8]  01 00 00 00 00 00 00 00
 (000.009965)  can0  150   [8]  01 00 00 00 00 00 00 00
 (000.002050)  can0  151   [8]  01 01 19 00 00 00 00 00
 (000.000115)  can0  155   [8]  00 00 00 00 FF FF 79 A5
 (000.000133)  can0  156   [8]  00 00 86 5B 00 00 00 00
 (000.000113)  can0  157   [8]  FF FF E2 F2 00 00 00 00
 (000.007593)  can0  150   [8]  01 00 00 00 00 00 00 00
 (000.009990)  can0  150   [8]  01 00 00 00 00 00 00 00
 (000.002010)  can0  151   [8]  01 01 19 00 00 00 00 00
 (000.000108)  can0  155   [8]  00 00 00 00 FF FF 79 A5
 (000.000109)  can0  156   [8]  00 00 86 5B 00 00 00 00
 (000.000135)  can0  157   [8]  FF FF E8 7D 00 00 00 00
 (000.007652)  can0  150   [8]  01 00 00 00 00 00 00 00
 (000.010031)  can0  150   [8]  01 00 00 00 00 00 00 00
 (000.001459)  can0  151   [8]  01 01 19 00 00 00 00 00
 (000.000129)  can0  155   [8]  00 00 00 00 FF FF 79 A5
 (000.000107)  can0  156   [8]  00 00 86 5B 00 00 00 00
 (000.000174)  can0  157   [8]  FF FF EE 08 00 00 00 00
 (000.008094)  can0  150   [8]  01 00 00 00 00 00 00 00
 (000.010001)  can0  150   [8]  01 00 00 00 00 00 00 00
 (000.001806)  can0  151   [8]  01 01 19 00 00 00 00 00
 (000.000113)  can0  155   [8]  00 00 00 00 FF FF 79 A5
 (000.000118)  can0  156   [8]  00 00 86 5B 00 00 00 00
 (000.000123)  can0  157   [8]  FF FF EE 08 00 00 00 00
 (000.007831)  can0  150   [8]  01 00 00 00 00 00 00 00
 (000.009997)  can0  150   [8]  01 00 00 00 00 00 00 00
 (000.002122)  can0  151   [8]  01 01 19 00 00 00 00 00
 (000.000135)  can0  155   [8]  00 00 00 00 FF FF 79 A5
 (000.000111)  can0  156   [8]  00 00 86 5B 00 00 00 00
 (000.000127)  can0  157   [8]  FF FF F3 92 00 00 00 00
 (000.007519)  can0  150   [8]  01 00 00 00 00 00 00 00
 (000.009974)  can0  150   [8]  01 00 00 00 00 00 00 00
 (000.001680)  can0  151   [8]  01 01 19 00 00 00 00 00
 (000.000128)  can0  155   [8]  00 00 00 00 FF FF 79 A5
 (000.000116)  can0  156   [8]  00 00 86 5B 00 00 00 00
 (000.000116)  can0  157   [8]  FF FF F3 92 00 00 00 00
 (000.008002)  can0  150   [8]  01 00 00 00 00 00 00 00
 (000.010000)  can0  150   [8]  01 00 00 00 00 00 00 00
 (000.003247)  can0  151   [8]  01 01 19 00 00 00 00 00
 (000.000097)  can0  155   [8]  00 00 00 00 FF FF 79 A5
 (000.000113)  can0  156   [8]  00 00 86 5B 00 00 00 00
 (000.000132)  can0  157   [8]  FF FF F9 1D 00 00 00 00
 (000.006408)  can0  150   [8]  01 00 00 00 00 00 00 00
 (000.010046)  can0  150   [8]  01 00 00 00 00 00 00 00
 (000.006217)  can0  151   [8]  01 01 19 00 00 00 00 00
 (000.000128)  can0  155   [8]  00 00 00 00 FF FF 79 A5
 (000.002428)  can0  156   [8]  00 00 86 5B 00 00 00 00
 (000.000115)  can0  157   [8]  FF FF FE A8 00 00 00 00
 (000.001055)  can0  150   [8]  01 00 00 00 00 00 00 00
 (000.010064)  can0  150   [8]  01 00 00 00 00 00 00 00
 (000.004537)  can0  151   [8]  01 01 19 00 00 00 00 00
 (000.000117)  can0  155   [8]  00 00 00 00 FF FF 79 A5
 (000.000109)  can0  156   [8]  00 00 86 5B 00 00 00 00
 (000.000119)  can0  157   [8]  FF FF FE A8 00 00 00 00
 (000.005092)  can0  150   [8]  01 00 00 00 00 00 00 00
 (000.009985)  can0  150   [8]  01 00 00 00 00 00 00 00
 (000.004147)  can0  151   [8]  01 01 19 00 00 00 00 00
 (000.000125)  can0  155   [8]  00 00 00 00 FF FF 79 A5
 (000.000116)  can0  156   [8]  00 00 86 5B 00 00 00 00
 (000.000125)  can0  157   [8]  00 00 04 33 00 00 00 00
 (000.005529)  can0  150   [8]  01 00 00 00 00 00 00 00
 (000.009942)  can0  150   [8]  01 00 00 00 00 00 00 00
 (000.002131)  can0  151   [8]  01 01 19 00 00 00 00 00
 (000.000110)  can0  155   [8]  00 00 00 00 FF FF 79 A5
 (000.000133)  can0  156   [8]  00 00 86 5B 00 00 00 00
 (000.000116)  can0  157   [8]  00 00 04 33 00 00 00 00
 (000.007519)  can0  150   [8]  01 00 00 00 00 00 00 00
 (000.009983)  can0  150   [8]  01 00 00 00 00 00 00 00
 (000.001499)  can0  151   [8]  01 01 19 00 00 00 00 00
 (000.000125)  can0  155   [8]  00 00 00 00 FF FF 79 A5
 (000.000111)  can0  156   [8]  00 00 86 5B 00 00 00 00
 (000.000166)  can0  157   [8]  00 00 09 BE 00 00 00 00
 (000.008097)  can0  150   [8]  01 00 00 00 00 00 00 00
 (000.010024)  can0  150   [8]  01 00 00 00 00 00 00 00
 (000.001429)  can0  151   [8]  01 01 19 00 00 00 00 00
 (000.000103)  can0  155   [8]  00 00 00 00 FF FF 79 A5
 (000.000134)  can0  156   [8]  00 00 86 5B 00 00 00 00
 (000.000114)  can0  157   [8]  00 00 0F 48 00 00 00 00
 (000.008194)  can0  150   [8]  01 00 00 00 00 00 00 00
 (000.010001)  can0  150   [8]  01 00 00 00 00 00 00 00
 (000.002083)  can0  151   [8]  01 01 19 00 00 00 00 00
 (000.000110)  can0  155   [8]  00 00 00 00 FF FF 79 A5
 (000.000139)  can0  156   [8]  00 00 86 5B 00 00 00 00
 (000.000104)  can0  157   [8]  00 00 0F 48 00 00 00 00
 (000.007564)  can0  150   [8]  01 00 00 00 00 00 00 00
 (000.010009)  can0  150   [8]  01 00 00 00 00 00 00 00
 (000.001394)  can0  151   [8]  01 01 19 00 00 00 00 00
 (000.000117)  can0  155   [8]  00 00 00 00 FF FF 79 A5
 (000.000131)  can0  156   [8]  00 00 86 5B 00 00 00 00
 (000.000107)  can0  157   [8]  00 00 14 D3 00 00 00 00
 (000.019827)  can0  151   [8]  01 01 19 00 00 00 00 00
 (000.000130)  can0  155   [8]  00 00 00 00 FF FF 79 A5
 (000.000115)  can0  156   [8]  00 00 86 5B 00 00 00 00
 (000.000117)  can0  157   [8]  00 00 14 D3 00 00 00 00
 (000.020225)  can0  151   [8]  01 01 19 00 00 00 00 00
 (000.000106)  can0  155   [8]  00 00 00 00 FF FF 79 A5
 (000.000128)  can0  156   [8]  00 00 86 5B 00 00 00 00
 (000.000119)  can0  157   [8]  00 00 1A 5E 00 00 00 00
 (000.019707)  can0  151   [8]  01 01 19 00 00 00 00 00
 (000.000128)  can0  155   [8]  00 00 00 00 FF FF 79 A5
 (000.000111)  can0  156   [8]  00 00 86 5B 00 00 00 00
 (000.000128)  can0  157   [8]  00 00 1F E9 00 00 00 00
 (000.018685)  can0  151   [8]  01 01 19 00 00 00 00 00
 (000.000125)  can0  155   [8]  00 00 00 00 FF FF 79 A5
 (000.000107)  can0  156   [8]  00 00 86 5B 00 00 00 00
 (000.000136)  can0  157   [8]  00 00 1F E9 00 00 00 00
 (000.019757)  can0  151   [8]  01 01 19 00 00 00 00 00
 (000.000121)  can0  155   [8]  00 00 00 00 FF FF 79 A5
 (000.000113)  can0  156   [8]  00 00 86 5B 00 00 00 00
 (000.000116)  can0  157   [8]  00 00 25 74 00 00 00 00
 (000.020342)  can0  151   [8]  01 01 19 00 00 00 00 00
 (000.000081)  can0  155   [8]  00 00 00 00 FF FF 79 A5
 (000.000128)  can0  156   [8]  00 00 86 5B 00 00 00 00
 (000.000113)  can0  157   [8]  00 00 2A FE 00 00 00 00
 (000.020494)  can0  151   [8]  01 01 19 00 00 00 00 00
 (000.000060)  can0  155   [8]  00 00 00 00 FF FF 79 A5
 (000.000143)  can0  156   [8]  00 00 86 5B 00 00 00 00
 (000.000116)  can0  157   [8]  00 00 2A FE 00 00 00 00
 (000.018179)  can0  151   [8]  01 01 19 00 00 00 00 00
 (000.000114)  can0  155   [8]  00 00 00 00 FF FF 79 A5
 (000.000121)  can0  156   [8]  00 00 86 5B 00 00 00 00
 (000.000117)  can0  157   [8]  00 00 30 89 00 00 00 00
 (000.019625)  can0  151   [8]  01 01 19 00 00 00 00 00
 (000.000121)  can0  155   [8]  00 00 00 00 FF FF 79 A5
 (000.000114)  can0  156   [8]  00 00 86 5B 00 00 00 00
 (000.000116)  can0  157   [8]  00 00 30 89 00 00 00 00
 (000.020282)  can0  151   [8]  01 01 19 00 00 00 00 00
 (000.000116)  can0  155   [8]  00 00 00 00 FF FF 79 A5
 (000.000123)  can0  156   [8]  00 00 86 5B 00 00 00 00
 (000.000112)  can0  157   [8]  00 00 36 14 00 00 00 00
 (000.019706)  can0  151   [8]  01 01 19 00 00 00 00 00
 (000.000104)  can0  155   [8]  00 00 00 00 FF FF 79 A5
 (000.000239)  can0  156   [8]  00 00 86 5B 00 00 00 00
 (000.000005)  can0  157   [8]  00 00 3B 9F 00 00 00 00
 (000.019135)  can0  151   [8]  01 01 19 00 00 00 00 00
 (000.000126)  can0  155   [8]  00 00 00 00 FF FF 79 A5
 (000.000110)  can0  156   [8]  00 00 86 5B 00 00 00 00
 (000.000140)  can0  157   [8]  00 00 3B 9F 00 00 00 00
 (000.020315)  can0  151   [8]  01 01 19 00 00 00 00 00
 (000.000122)  can0  155   [8]  00 00 00 00 FF FF 79 A5
 (000.000107)  can0  156   [8]  00 00 86 5B 00 00 00 00
 (000.000121)  can0  157   [8]  00 00 41 2A 00 00 00 00
 (000.018940)  can0  151   [8]  01 01 19 00 00 00 00 00
 (000.000120)  can0  155   [8]  00 00 00 00 FF FF 79 A5
 (000.000115)  can0  156   [8]  00 00 86 5B 00 00 00 00
 (000.000122)  can0  157   [8]  00 00 41 2A 00 00 00 00
 (000.020612)  can0  151   [8]  01 01 19 00 00 00 00 00
 (000.000129)  can0  155   [8]  00 00 00 00 FF FF 79 A5
 (000.000110)  can0  156   [8]  00 00 86 5B 00 00 00 00
 (000.000150)  can0  157   [8]  00 00 46 B4 00 00 00 00
 (000.018424)  can0  151   [8]  01 01 19 00 00 00 00 00
 (000.000104)  can0  155   [8]  00 00 00 00 FF FF 79 A5
 (000.000131)  can0  156   [8]  00 00 86 5B 00 00 00 00
 (000.000118)  can0  157   [8]  00 00 4C 3F 00 00 00 00
 (000.021015)  can0  151   [8]  01 01 19 00 00 00 00 00
 (000.000126)  can0  155   [8]  00 00 00 00 FF FF 79 A5
 (000.000116)  can0  156   [8]  00 00 86 5B 00 00 00 00
 (000.000129)  can0  157   [8]  00 00 4C 3F 00 00 00 00
 (000.018526)  can0  151   [8]  01 01 19 00 00 00 00 00
 (000.000093)  can0  155   [8]  00 00 00 00 FF FF 79 A5
 (000.000124)  can0  156   [8]  00 00 86 5B 00 00 00 00
 (000.000117)  can0  157   [8]  00 00 51 CA 00 00 00 00
 (000.020263)  can0  151   [8]  01 01 19 00 00 00 00 00
 (000.000108)  can0  155   [8]  00 00 00 00 FF FF 79 A5
 (000.000118)  can0  156   [8]  00 00 86 5B 00 00 00 00
 (000.000134)  can0  157   [8]  00 00 51 CA 00 00 00 00
 (000.018906)  can0  151   [8]  01 01 19 00 00 00 00 00
 (000.000126)  can0  155   [8]  00 00 00 00 FF FF 79 A5
 (000.000109)  can0  156   [8]  00 00 86 5B 00 00 00 00
 (000.000115)  can0  157   [8]  00 00 57 55 00 00 00 00
 (000.019621)  can0  151   [8]  01 01 19 00 00 00 00 00
 (000.000106)  can0  155   [8]  00 00 00 00 FF FF 79 A5
 (000.000133)  can0  156   [8]  00 00 86 5B 00 00 00 00
 (000.000116)  can0  157   [8]  00 00 5C DF 00 00 00 00
 (000.020135)  can0  151   [8]  01 01 19 00 00 00 00 00
 (000.000092)  can0  155   [8]  00 00 00 00 FF FF 79 A5
 (000.000152)  can0  156   [8]  00 00 86 5B 00 00 00 00
 (000.000096)  can0  157   [8]  00 00 5C DF 00 00 00 00
 (000.020404)  can0  151   [8]  01 01 19 00 00 00 00 00
 (000.000107)  can0  155   [8]  00 00 00 00 FF FF 79 A5
 (000.000136)  can0  156   [8]  00 00 86 5B 00 00 00 00
 (000.000107)  can0  157   [8]  00 00 62 6A 00 00 00 00
 (000.018669)  can0  151   [8]  01 01 19 00 00 00 00 00
 (000.000109)  can0  155   [8]  00 00 00 00 FF FF 79 A5
 (000.000135)  can0  156   [8]  00 00 86 5B 00 00 00 00
 (000.000121)  can0  157   [8]  00 00 62 6A 00 00 00 00
 (000.019214)  can0  151   [8]  01 01 19 00 00 00 00 00
 (000.000104)  can0  155   [8]  00 00 00 00 FF FF 79 A5
 (000.000129)  can0  156   [8]  00 00 86 5B 00 00 00 00
 (000.000109)  can0  157   [8]  00 00 67 F5 00 00 00 00
 (000.020418)  can0  151   [8]  01 01 19 00 00 00 00 00
 (000.000124)  can0  155   [8]  00 00 00 00 FF FF 79 A5
 (000.000109)  can0  156   [8]  00 00 86 5B 00 00 00 00
 (000.000106)  can0  157   [8]  00 00 6D 80 00 00 00 00
 (000.001557)  can0  150   [8]  01 00 00 00 00 00 00 00
 (000.010007)  can0  150   [8]  01 00 00 00 00 00 00 00
 (000.008682)  can0  151   [8]  01 01 19 00 00 00 00 00
 (000.000120)  can0  155   [8]  00 00 00 00 FF FF 79 A5
 (000.000106)  can0  156   [8]  00 00 86 5B 00 00 00 00
 (000.000127)  can0  157   [8]  00 00 6D 80 00 00 00 00
 (000.000954)  can0  150   [8]  01 00 00 00 00 00 00 00
 (000.010015)  can0  150   [8]  01 00 00 00 00 00 00 00
 (000.007440)  can0  151   [8]  01 01 19 00 00 00 00 00
 (000.000126)  can0  155   [8]  00 00 00 00 FF FF 79 A5
 (000.000113)  can0  156   [8]  00 00 86 5B 00 00 00 00
 (000.000113)  can0  157   [8]  00 00 73 0B 00 00 00 00
 (000.002193)  can0  150   [8]  01 00 00 00 00 00 00 00
 (000.010007)  can0  150   [8]  01 00 00 00 00 00 00 00
 (000.007361)  can0  151   [8]  01 01 19 00 00 00 00 00
 (000.000129)  can0  155   [8]  00 00 00 00 FF FF 79 A5
 (000.000103)  can0  156   [8]  00 00 86 5B 00 00 00 00
 (000.000127)  can0  157   [8]  00 00 73 0B 00 00 00 00
 (000.002271)  can0  150   [8]  01 00 00 00 00 00 00 00
 (000.010014)  can0  150   [8]  01 00 00 00 00 00 00 00
 (000.007688)  can0  151   [8]  01 01 19 00 00 00 00 00
 (000.000120)  can0  155   [8]  00 00 00 00 FF FF 79 A5
 (000.000091)  can0  156   [8]  00 00 86 5B 00 00 00 00
 (000.000141)  can0  157   [8]  00 00 78 95 00 00 00 00
 (000.001951)  can0  150   [8]  01 00 00 00 00 00 00 00
 (000.010013)  can0  150   [8]  01 00 00 00 00 00 00 00
 (000.008211)  can0  151   [8]  01 01 19 00 00 00 00 00
 (000.000105)  can0  155   [8]  00 00 00 00 FF FF 79 A5
 (000.000137)  can0  156   [8]  00 00 86 5B 00 00 00 00
 (000.000107)  can0  157   [8]  00 00 7E 20 00 00 00 00
 (000.001428)  can0  150   [8]  01 00 00 00 00 00 00 00
 (000.009993)  can0  150   [8]  01 00 00 00 00 00 00 00
 (000.008009)  can0  151   [8]  01 01 19 00 00 00 00 00
 (000.000064)  can0  155   [8]  00 00 00 00 FF FF 79 A5
 (000.000128)  can0  156   [8]  00 00 86 5B 00 00 00 00
 (000.000119)  can0  157   [8]  00 00 7E 20 00 00 00 00
 (000.001687)  can0  150   [8]  01 00 00 00 00 00 00 00
 (000.010002)  can0  150   [8]  01 00 00 00 00 00 00 00
 (000.007897)  can0  151   [8]  01 01 19 00 00 00 00 00
 (000.000110)  can0  155   [8]  00 00 00 00 FF FF 79 A5
 (000.000120)  can0  156   [8]  00 00 86 5B 00 00 00 00
 (000.000127)  can0  157   [8]  00 00 83 AB 00 00 00 00
 (000.001740)  can0  150   [8]  01 00 00 00 00 00 00 00
 (000.010030)  can0  150   [8]  01 00 00 00 00 00 00 00
 (000.008051)  can0  151   [8]  01 01 19 00 00 00 00 00
 (000.000131)  can0  155   [8]  00 00 00 00 FF FF 79 A5
 (000.000109)  can0  156   [8]  00 00 86 5B 00 00 00 00
 (000.000111)  can0  157   [8]  00 00 83 AB 00 00 00 00
 (000.001571)  can0  150   [8]  01 00 00 00 00 00 00 00
 (000.010014)  can0  150   [8]  01 00 00 00 00 00 00 00
 (000.007865)  can0  151   [8]  01 01 19 00 00 00 00 00
 (000.000113)  can0  155   [8]  00 00 00 00 FF FF 79 A5
 (000.000339)  can0  156   [8]  00 00 86 5B 00 00 00 00
 (000.000109)  can0  157   [8]  00 00 86 5B 00 00 00 00
 (000.001568)  can0  150   [8]  01 00 00 00 00 00 00 00
 (000.010017)  can0  150   [8]  01 00 00 00 00 00 00 00
 (000.007700)  can0  151   [8]  01 01 19 00 00 00 00 00
 (000.000125)  can0  155   [8]  00 00 00 00 FF FF 79 A5
 (000.000143)  can0  156   [8]  00 00 86 5B 00 00 00 00
 (000.000106)  can0  157   [8]  00 00 80 D0 00 00 00 00
 (000.001913)  can0  150   [8]  01 00 00 00 00 00 00 00
 (000.010009)  can0  150   [8]  01 00 00 00 00 00 00 00
 (000.008617)  can0  151   [8]  01 01 19 00 00 00 00 00
 (000.000133)  can0  155   [8]  00 00 00 00 FF FF 79 A5
 (000.000101)  can0  156   [8]  00 00 86 5B 00 00 00 00
 (000.000120)  can0  157   [8]  00 00 80 D0 00 00 00 00
 (000.001018)  can0  150   [8]  01 00 00 00 00 00 00 00
 (000.010001)  can0  150   [8]  01 00 00 00 00 00 00 00
 (000.008163)  can0  151   [8]  01 01 19 00 00 00 00 00
 (000.000097)  can0  155   [8]  00 00 00 00 FF FF 79 A5
 (000.000128)  can0  156   [8]  00 00 86 5B 00 00 00 00
 (000.000116)  can0  157   [8]  00 00 7B 45 00 00 00 00
 (000.001509)  can0  150   [8]  01 00 00 00 00 00 00 00
 (000.009991)  can0  150   [8]  01 00 00 00 00 00 00 00
 (000.008359)  can0  151   [8]  01 01 19 00 00 00 00 00
 (000.000129)  can0  155   [8]  00 00 00 00 FF FF 79 A5
 (000.000117)  can0  156   [8]  00 00 86 5B 00 00 00 00
 (000.000131)  can0  157   [8]  00 00 7B 45 00 00 00 00
 (000.001267)  can0  150   [8]  01 00 00 00 00 00 00 00
 (000.010041)  can0  150   [8]  01 00 00 00 00 00 00 00
 (000.007508)  can0  151   [8]  01 01 19 00 00 00 00 00
 (000.000115)  can0  155   [8]  00 00 00 00 FF FF 79 A5
 (000.000116)  can0  156   [8]  00 00 86 5B 00 00 00 00
 (000.000125)  can0  157   [8]  00 00 75 BB 00 00 00 00
 (000.002078)  can0  150   [8]  01 00 00 00 00 00 00 00
 (000.010036)  can0  150   [8]  01 00 00 00 00 00 00 00
 (000.007434)  can0  151   [8]  01 01 19 00 00 00 00 00
 (000.000105)  can0  155   [8]  00 00 00 00 FF FF 79 A5
 (000.000129)  can0  156   [8]  00 00 86 5B 00 00 00 00
 (000.000111)  can0  157   [8]  00 00 70 30 00 00 00 00
 (000.002202)  can0  150   [8]  01 00 00 00 00 00 00 00
 (000.010009)  can0  150   [8]  01 00 00 00 00 00 00 00
 (000.007635)  can0  151   [8]  01 01 19 00 00 00 00 00
 (000.000107)  can0  155   [8]  00 00 00 00 FF FF 79 A5
 (000.000114)  can0  156   [8]  00 00 86 5B 00 00 00 00
 (000.000132)  can0  157   [8]  00 00 70 30 00 00 00 00
 (000.001997)  can0  150   [8]  01 00 00 00 00 00 00 00
 (000.010014)  can0  150   [8]  01 00 00 00 00 00 00 00
 (000.008085)  can0  151   [8]  01 01 19 00 00 00 00 00
 (000.000114)  can0  155   [8]  00 00 00 00 FF FF 79 A5
 (000.000119)  can0  156   [8]  00 00 86 5B 00 00 00 00
 (000.000130)  can0  157   [8]  00 00 6A A5 00 00 00 00
 (000.001543)  can0  150   [8]  01 00 00 00 00 00 00 00
 (000.010001)  can0  150   [8]  01 00 00 00 00 00 00 00
 (000.007532)  can0  151   [8]  01 01 19 00 00 00 00 00
 (000.000116)  can0  155   [8]  00 00 00 00 FF FF 79 A5
 (000.000119)  can0  156   [8]  00 00 86 5B 00 00 00 00
 (000.000122)  can0  157   [8]  00 00 6A A5 00 00 00 00
 (000.002111)  can0  150   [8]  01 00 00 00 00 00 00 00
 (000.010004)  can0  150   [8]  01 00 00 00 00 00 00 00
 (000.007707)  can0  151   [8]  01 01 19 00 00 00 00 00
 (000.000141)  can0  155   [8]  00 00 00 00 FF FF 79 A5
 (000.000125)  can0  156   [8]  00 00 86 5B 00 00 00 00
 (000.000089)  can0  157   [8]  00 00 65 1A 00 00 00 00
 (000.001932)  can0  150   [8]  01 00 00 00 00 00 00 00
 (000.009999)  can0  150   [8]  01 00 00 00 00 00 00 00
 (000.008035)  can0  151   [8]  01 01 19 00 00 00 00 00
 (000.000122)  can0  155   [8]  00 00 00 00 FF FF 79 A5
 (000.000106)  can0  156   [8]  00 00 86 5B 00 00 00 00
 (000.000118)  can0  157   [8]  00 00 5F 8F 00 00 00 00
 (000.001626)  can0  150   [8]  01 00 00 00 00 00 00 00
 (000.009999)  can0  150   [8]  01 00 00 00 00 00 00 00
 (000.008456)  can0  151   [8]  01 01 19 00 00 00 00 00
 (000.000125)  can0  155   [8]  00 00 00 00 FF FF 79 A5
 (000.000106)  can0  156   [8]  00 00 86 5B 00 00 00 00
 (000.000113)  can0  157   [8]  00 00 5F 8F 00 00 00 00
 (000.001197)  can0  150   [8]  01 00 00 00 00 00 00 00
 (000.010005)  can0  150   [8]  01 00 00 00 00 00 00 00
 (000.007716)  can0  151   [8]  01 01 19 00 00 00 00 00
 (000.000131)  can0  155   [8]  00 00 00 00 FF FF 79 A5
 (000.000123)  can0  156   [8]  00 00 86 5B 00 00 00 00
 (000.000104)  can0  157   [8]  00 00 5A 05 00 00 00 00
 (000.001921)  can0  150   [8]  01 00 00 00 00 00 00 00
 (000.010010)  can0  150   [8]  01 00 00 00 00 00 00 00
 (000.007444)  can0  151   [8]  01 01 19 00 00 00 00 00
 (000.000102)  can0  155   [8]  00 00 00 00 FF FF 79 A5
 (000.000134)  can0  156   [8]  00 00 86 5B 00 00 00 00
 (000.000118)  can0  157   [8]  00 00 5A 05 00 00 00 00
 (000.002190)  can0  150   [8]  01 00 00 00 00 00 00 00
 (000.010014)  can0  150   [8]  01 00 00 00 00 00 00 00
 (000.007686)  can0  151   [8]  01 01 19 00 00 00 00 00
 (000.000104)  can0  155   [8]  00 00 00 00 FF FF 79 A5
 (000.000178)  can0  156   [8]  00 00 86 5B 00 00 00 00
 (000.000073)  can0  157   [8]  00 00 54 7A 00 00 00 00
 (000.001957)  can0  150   [8]  01 00 00 00 00 00 00 00
 (000.010002)  can0  150   [8]  01 00 00 00 00 00 00 00
 (000.007798)  can0  151   [8]  01 01 19 00 00 00 00 00
 (000.000174)  can0  155   [8]  00 00 00 00 FF FF 79 A5
 (000.000064)  can0  156   [8]  00 00 86 5B 00 00 00 00
 (000.000119)  can0  157   [8]  00 00 4E EF 00 00 00 00
 (000.001835)  can0  150   [8]  01 00 00 00 00 00 00 00
 (000.010029)  can0  150   [8]  01 00 00 00 00 00 00 00
 (000.007310)  can0  151   [8]  01 01 19 00 00 00 00 00
 (000.000117)  can0  155   [8]  00 00 00 00 FF FF 79 A5
 (000.000111)  can0  156   [8]  00 00 86 5B 00 00 00 00
 (000.000127)  can0  157   [8]  00 00 4E EF 00 00 00 00
 (000.002331)  can0  150   [8]  01 00 00 00 00 00 00 00
 (000.009978)  can0  150   [8]  01 00 00 00 00 00 00 00
 (000.007482)  can0  151   [8]  01 01 19 00 00 00 00 00
 (000.000134)  can0  155   [8]  00 00 00 00 FF FF 79 A5
 (000.000113)  can0  156   [8]  00 00 86 5B 00 00 00 00
 (000.000108)  can0  157   [8]  00 00 49 64 00 00 00 00
 (000.002167)  can0  150   [8]  01 00 00 00 00 00 00 00
 (000.010004)  can0  150   [8]  01 00 00 00 00 00 00 00
 (000.007785)  can0  151   [8]  01 01 19 00 00 00 00 00
 (000.000098)  can0  155   [8]  00 00 00 00 FF FF 79 A5
 (000.000125)  can0  156   [8]  00 00 86 5B 00 00 00 00
 (000.000129)  can0  157   [8]  00 00 49 64 00 00 00 00
 (000.001861)  can0  150   [8]  01 00 00 00 00 00 00 00
 (000.010005)  can0  150   [8]  01 00 00 00 00 00 00 00
 (000.007542)  can0  151   [8]  01 01 19 00 00 00 00 00
 (000.000117)  can0  155   [8]  00 00 00 00 FF FF 79 A5
 (000.000122)  can0  156   [8]  00 00 86 5B 00 00 00 00
 (000.000186)  can0  157   [8]  00 00 43 D9 00 00 00 00
 (000.002017)  can0  150   [8]  01 00 00 00 00 00 00 00
 (000.017361)  can0  151   [8]  01 01 19 00 00 00 00 00
 (000.000107)  can0  155   [8]  00 00 00 00 FF FF 79 A5
 (000.000134)  can0  156   [8]  00 00 86 5B 00 00 00 00
 (000.000104)  can0  157   [8]  00 00 3E 4F 00 00 00 00
 (000.019510)  can0  151   [8]  01 01 19 00 00 00 00 00
 (000.000111)  can0  155   [8]  00 00 00 00 FF FF 79 A5
 (000.000107)  can0  156   [8]  00 00 86 5B 00 00 00 00
 (000.000113)  can0  157   [8]  00 00 3E 4F 00 00 00 00
 (000.020536)  can0  151   [8]  01 01 19 00 00 00 00 00
 (000.000100)  can0  155   [8]  00 00 00 00 FF FF 79 A5
 (000.000132)  can0  156   [8]  00 00 86 5B 00 00 00 00
 (000.000104)  can0  157   [8]  00 00 38 C4 00 00 00 00
 (000.020179)  can0  151   [8]  01 01 19 00 00 00 00 00
 (000.000113)  can0  155   [8]  00 00 00 00 FF FF 79 A5
 (000.000116)  can0  156   [8]  00 00 86 5B 00 00 00 00
 (000.000151)  can0  157   [8]  00 00 38 C4 00 00 00 00
 (000.018443)  can0  151   [8]  01 01 19 00 00 00 00 00
 (000.000127)  can0  155   [8]  00 00 00 00 FF FF 79 A5
 (000.000117)  can0  156   [8]  00 00 86 5B 00 00 00 00
 (000.000116)  can0  157   [8]  00 00 33 39 00 00 00 00
 (000.019456)  can0  151   [8]  01 01 19 00 00 00 00 00
 (000.000117)  can0  155   [8]  00 00 00 00 FF FF 79 A5
 (000.000108)  can0  156   [8]  00 00 86 5B 00 00 00 00
 (000.000134)  can0  157   [8]  00 00 2D AE 00 00 00 00
 (000.020172)  can0  151   [8]  01 01 19 00 00 00 00 00
 (000.000103)  can0  155   [8]  00 00 00 00 FF FF 79 A5
 (000.000117)  can0  156   [8]  00 00 86 5B 00 00 00 00
 (000.000128)  can0  157   [8]  00 00 2D AE 00 00 00 00
 (000.020331)  can0  151   [8]  01 01 19 00 00 00 00 00
 (000.000110)  can0  155   [8]  00 00 00 00 FF FF 79 A5
 (000.000135)  can0  156   [8]  00 00 86 5B 00 00 00 00
 (000.000109)  can0  157   [8]  00 00 28 23 00 00 00 00
 (000.018629)  can0  151   [8]  01 01 19 00 00 00 00 00
 (000.000110)  can0  155   [8]  00 00 00 00 FF FF 79 A5
 (000.000117)  can0  156   [8]  00 00 86 5B 00 00 00 00
 (000.000131)  can0  157   [8]  00 00 28 23 00 00 00 00
 (000.019427)  can0  151   [8]  01 01 19 00 00 00 00 00
 (000.000118)  can0  155   [8]  00 00 00 00 FF FF 79 A5
 (000.000120)  can0  156   [8]  00 00 86 5B 00 00 00 00
 (000.000124)  can0  157   [8]  00 00 22 99 00 00 00 00
 (000.019816)  can0  151   [8]  01 01 19 00 00 00 00 00
 (000.000112)  can0  155   [8]  00 00 00 00 FF FF 79 A5
 (000.000126)  can0  156   [8]  00 00 86 5B 00 00 00 00
 (000.000109)  can0  157   [8]  00 00 1D 0E 00 00 00 00
 (000.020096)  can0  151   [8]  01 01 19 00 00 00 00 00
 (000.000143)  can0  155   [8]  00 00 00 00 FF FF 79 A5
 (000.000102)  can0  156   [8]  00 00 86 5B 00 00 00 00
 (000.000129)  can0  157   [8]  00 00 1D 0E 00 00 00 00
 (000.019603)  can0  151   [8]  01 01 19 00 00 00 00 00
 (000.000171)  can0  155   [8]  00 00 00 00 FF FF 79 A5
 (000.000073)  can0  156   [8]  00 00 86 5B 00 00 00 00
 (000.000114)  can0  157   [8]  00 00 17 83 00 00 00 00
 (000.019151)  can0  151   [8]  01 01 19 00 00 00 00 00
 (000.000123)  can0  155   [8]  00 00 00 00 FF FF 79 A5
 (000.000113)  can0  156   [8]  00 00 86 5B 00 00 00 00
 (000.000125)  can0  157   [8]  00 00 17 83 00 00 00 00
 (000.019939)  can0  151   [8]  01 01 19 00 00 00 00 00
 (000.000103)  can0  155   [8]  00 00 00 00 FF FF 79 A5
 (000.000137)  can0  156   [8]  00 00 86 5B 00 00 00 00
 (000.000115)  can0  157   [8]  00 00 11 F8 00 00 00 00
 (000.019843)  can0  151   [8]  01 01 19 00 00 00 00 00
 (000.000165)  can0  155   [8]  00 00 00 00 FF FF 79 A5
 (000.000072)  can0  156   [8]  00 00 86 5B 00 00 00 00
 (000.000115)  can0  157   [8]  00 00 0C 6E 00 00 00 00
 (000.019080)  can0  151   [8]  01 01 19 00 00 00 00 00
 (000.000123)  can0  155   [8]  00 00 00 00 FF FF 79 A5
 (000.000111)  can0  156   [8]  00 00 86 5B 00 00 00 00
 (000.000118)  can0  157   [8]  00 00 0C 6E 00 00 00 00
 (000.019791)  can0  151   [8]  01 01 19 00 00 00 00 00
 (000.000111)  can0  155   [8]  00 00 00 00 FF FF 79 A5
 (000.000107)  can0  156   [8]  00 00 86 5B 00 00 00 00
 (000.000131)  can0  157   [8]  00 00 06 E3 00 00 00 00
 (000.019924)  can0  151   [8]  01 01 19 00 00 00 00 00
 (000.000174)  can0  155   [8]  00 00 00 00 FF FF 79 A5
 (000.000065)  can0  156   [8]  00 00 86 5B 00 00 00 00
 (000.000113)  can0  157   [8]  00 00 01 58 00 00 00 00
 (000.019512)  can0  151   [8]  01 01 19 00 00 00 00 00
 (000.000105)  can0  155   [8]  00 00 00 00 FF FF 79 A5
 (000.000128)  can0  156   [8]  00 00 86 5B 00 00 00 00
 (000.000117)  can0  157   [8]  00 00 01 58 00 00 00 00
 (000.019508)  can0  151   [8]  01 01 19 00 00 00 00 00
 (000.000107)  can0  155   [8]  00 00 00 00 FF FF 79 A5
 (000.000117)  can0  156   [8]  00 00 86 5B 00 00 00 00
 (000.000132)  can0  157   [8]  FF FF FB CD 00 00 00 00
 (000.020243)  can0  151   [8]  01 01 19 00 00 00 00 00
 (000.000091)  can0  155   [8]  00 00 00 00 FF FF 79 A5
 (000.000133)  can0  156   [8]  00 00 86 5B 00 00 00 00
 (000.000116)  can0  157   [8]  FF FF FB CD 00 00 00 00
 (000.020133)  can0  151   [8]  01 01 19 00 00 00 00 00
 (000.000097)  can0  155   [8]  00 00 00 00 FF FF 79 A5
 (000.000142)  can0  156   [8]  00 00 86 5B 00 00 00 00
 (000.000106)  can0  157   [8]  FF FF F6 42 00 00 00 00
 (000.019622)  can0  151   [8]  01 01 19 00 00 00 00 00
 (000.000113)  can0  155   [8]  00 00 00 00 FF FF 79 A5
 (000.000135)  can0  156   [8]  00 00 86 5B 00 00 00 00
 (000.000114)  can0  157   [8]  FF FF F0 B8 00 00 00 00
 (000.018881)  can0  151   [8]  01 01 19 00 00 00 00 00
 (000.000111)  can0  155   [8]  00 00 00 00 FF FF 79 A5
 (000.000203)  can0  156   [8]  00 00 86 5B 00 00 00 00
 (000.000056)  can0  157   [8]  FF FF F0 B8 00 00 00 00
 (000.019523)  can0  151   [8]  01 01 19 00 00 00 00 00
 (000.000114)  can0  155   [8]  00 00 00 00 FF FF 79 A5
 (000.000114)  can0  156   [8]  00 00 86 5B 00 00 00 00
 (000.000192)  can0  157   [8]  FF FF EB 2D 00 00 00 00
 (000.020306)  can0  151   [8]  01 01 19 00 00 00 00 00
 (000.000099)  can0  155   [8]  00 00 00 00 FF FF 79 A5
 (000.000137)  can0  156   [8]  00 00 86 5B 00 00 00 00
 (000.000112)  can0  157   [8]  FF FF EB 2D 00 00 00 00
 (000.019999)  can0  151   [8]  01 01 19 00 00 00 00 00
 (000.000114)  can0  155   [8]  00 00 00 00 FF FF 79 A5
 (000.000115)  can0  156   [8]  00 00 86 5B 00 00 00 00
 (000.000132)  can0  157   [8]  FF FF E5 A2 00 00 00 00
 (000.018862)  can0  151   [8]  01 01 19 00 00 00 00 00
 (000.000121)  can0  155   [8]  00 00 00 00 FF FF 79 A5
 (000.000114)  can0  156   [8]  00 00 86 5B 00 00 00 00
 (000.000118)  can0  157   [8]  FF FF E0 17 00 00 00 00
 (000.019308)  can0  151   [8]  01 01 19 00 00 00 00 00
 (000.000109)  can0  155   [8]  00 00 00 00 FF FF 79 A5
 (000.000109)  can0  156   [8]  00 00 86 5B 00 00 00 00
 (000.000133)  can0  157   [8]  FF FF E0 17 00 00 00 00
 (000.020115)  can0  151   [8]  01 01 19 00 00 00 00 00
 (000.000095)  can0  155   [8]  00 00 00 00 FF FF 79 A5
 (000.000129)  can0  156   [8]  00 00 86 5B 00 00 00 00
 (000.000118)  can0  157   [8]  FF FF DA 8C 00 00 00 00
 (000.019526)  can0  151   [8]  01 01 19 00 00 00 00 00
 (000.000124)  can0  155   [8]  00 00 00 00 FF FF 79 A5
 (000.000118)  can0  156   [8]  00 00 86 5B 00 00 00 00
 (000.000116)  can0  157   [8]  FF FF DA 8C 00 00 00 00
 (000.019248)  can0  151   [8]  01 01 19 00 00 00 00 00
 (000.000127)  can0  155   [8]  00 00 00 00 FF FF 79 A5
 (000.000105)  can0  156   [8]  00 00 86 5B 00 00 00 00
 (000.000123)  can0  157   [8]  FF FF D5 02 00 00 00 00
 (000.019821)  can0  151   [8]  01 01 19 00 00 00 00 00
 (000.000125)  can0  155   [8]  00 00 00 00 FF FF 79 A5
 (000.000122)  can0  156   [8]  00 00 86 5B 00 00 00 00
 (000.000114)  can0  157   [8]  FF FF CF 77 00 00 00 00
 (000.020019)  can0  151   [8]  01 01 19 00 00 00 00 00
 (000.000097)  can0  155   [8]  00 00 00 00 FF FF 79 A5
 (000.000139)  can0  156   [8]  00 00 86 5B 00 00 00 00
 (000.000101)  can0  157   [8]  FF FF CF 77 00 00 00 00
 (000.019683)  can0  151   [8]  01 01 19 00 00 00 00 00
 (000.000106)  can0  155   [8]  00 00 00 00 FF FF 79 A5
 (000.000122)  can0  156   [8]  00 00 86 5B 00 00 00 00
 (000.000128)  can0  157   [8]  FF FF C9 EC 00 00 00 00
 (000.019155)  can0  151   [8]  01 01 19 00 00 00 00 00
 (000.000126)  can0  155   [8]  00 00 00 00 FF FF 79 A5
 (000.000118)  can0  156   [8]  00 00 86 5B 00 00 00 00
 (000.000195)  can0  157   [8]  FF FF C9 EC 00 00 00 00
 (000.019490)  can0  151   [8]  01 01 19 00 00 00 00 00
 (000.000116)  can0  155   [8]  00 00 00 00 FF FF 79 A5
 (000.000103)  can0  156   [8]  00 00 86 5B 00 00 00 00
 (000.000497)  can0  157   [8]  FF FF C4 61 00 00 00 00
 (000.019499)  can0  151   [8]  01 01 19 00 00 00 00 00
 (000.000107)  can0  155   [8]  00 00 00 00 FF FF 79 A5
 (000.000184)  can0  156   [8]  00 00 86 5B 00 00 00 00
 (000.000075)  can0  157   [8]  FF FF BE D6 00 00 00 00
 (000.019606)  can0  151   [8]  01 01 19 00 00 00 00 00
 (000.000116)  can0  155   [8]  00 00 00 00 FF FF 79 A5
 (000.000107)  can0  156   [8]  00 00 86 5B 00 00 00 00
 (000.000142)  can0  157   [8]  FF FF BE D6 00 00 00 00
 (000.019317)  can0  151   [8]  01 01 19 00 00 00 00 00
 (000.000141)  can0  155   [8]  00 00 00 00 FF FF 79 A5
 (000.000104)  can0  156   [8]  00 00 86 5B 00 00 00 00
 (000.000132)  can0  157   [8]  FF FF B9 4C 00 00 00 00
 (000.019809)  can0  151   [8]  01 01 19 00 00 00 00 00
 (000.000115)  can0  155   [8]  00 00 00 00 FF FF 79 A5
 (000.000128)  can0  156   [8]  00 00 86 5B 00 00 00 00
 (000.000118)  can0  157   [8]  FF FF B9 4C 00 00 00 00
 (000.020135)  can0  151   [8]  01 01 19 00 00 00 00 00
 (000.000108)  can0  155   [8]  00 00 00 00 FF FF 79 A5
 (000.000111)  can0  156   [8]  00 00 86 5B 00 00 00 00
 (000.000136)  can0  157   [8]  FF FF B3 C1 00 00 00 00
 (000.020346)  can0  151   [8]  01 01 19 00 00 00 00 00
 (000.000109)  can0  155   [8]  00 00 00 00 FF FF 79 A5
 (000.000145)  can0  156   [8]  00 00 86 5B 00 00 00 00
 (000.000098)  can0  157   [8]  FF FF AE 36 00 00 00 00
 (000.018433)  can0  151   [8]  01 01 19 00 00 00 00 00
 (000.000111)  can0  155   [8]  00 00 00 00 FF FF 79 A5
 (000.000127)  can0  156   [8]  00 00 86 5B 00 00 00 00
 (000.000116)  can0  157   [8]  FF FF AE 36 00 00 00 00
 (000.019451)  can0  151   [8]  01 01 19 00 00 00 00 00
 (000.000119)  can0  155   [8]  00 00 00 00 FF FF 79 A5
 (000.000115)  can0  156   [8]  00 00 86 5B 00 00 00 00
 (000.000135)  can0  157   [8]  FF FF A8 AB 00 00 00 00
 (000.020199)  can0  151   [8]  01 01 19 00 00 00 00 00
 (000.000140)  can0  155   [8]  00 00 00 00 FF FF 79 A5
 (000.000109)  can0  156   [8]  00 00 86 5B 00 00 00 00
 (000.000112)  can0  157   [8]  FF FF A8 AB 00 00 00 00
 (000.020819)  can0  151   [8]  01 01 19 00 00 00 00 00
 (000.000106)  can0  155   [8]  00 00 00 00 FF FF 79 A5
 (000.000134)  can0  156   [8]  00 00 86 5B 00 00 00 00
 (000.000115)  can0  157   [8]  FF FF A3 21 00 00 00 00
 (000.018340)  can0  151   [8]  01 01 19 00 00 00 00 00
 (000.000110)  can0  155   [8]  00 00 00 00 FF FF 79 A5
 (000.000138)  can0  156   [8]  00 00 86 5B 00 00 00 00
 (000.000111)  can0  157   [8]  FF FF 9D 96 00 00 00 00
 (000.019439)  can0  151   [8]  01 01 19 00 00 00 00 00
 (000.000116)  can0  155   [8]  00 00 00 00 FF FF 79 A5
 (000.000118)  can0  156   [8]  00 00 86 5B 00 00 00 00
 (000.000118)  can0  157   [8]  FF FF 9D 96 00 00 00 00
 (000.020744)  can0  151   [8]  01 01 19 00 00 00 00 00
 (000.000101)  can0  155   [8]  00 00 00 00 FF FF 79 A5
 (000.000133)  can0  156   [8]  00 00 86 5B 00 00 00 00
 (000.000118)  can0  157   [8]  FF FF 98 0B 00 00 00 00
 (000.019726)  can0  151   [8]  01 01 19 00 00 00 00 00
 (000.000125)  can0  155   [8]  00 00 00 00 FF FF 79 A5
 (000.000120)  can0  156   [8]  00 00 86 5B 00 00 00 00
 (000.000119)  can0  157   [8]  FF FF 98 0B 00 00 00 00
 (000.018271)  can0  151   [8]  01 01 19 00 00 00 00 00
 (000.000100)  can0  155   [8]  00 00 00 00 FF FF 79 A5
 (000.000124)  can0  156   [8]  00 00 86 5B 00 00 00 00
 (000.000115)  can0  157   [8]  FF FF 92 80 00 00 00 00
 (000.019895)  can0  151   [8]  01 01 19 00 00 00 00 00
 (000.000131)  can0  155   [8]  00 00 00 00 FF FF 79 A5
 (000.000109)  can0  156   [8]  00 00 86 5B 00 00 00 00
 (000.000141)  can0  157   [8]  FF FF 8C F5 00 00 00 00
 (000.020467)  can0  151   [8]  01 01 19 00 00 00 00 00
 (000.000086)  can0  155   [8]  00 00 00 00 FF FF 79 A5
 (000.000137)  can0  156   [8]  00 00 86 5B 00 00 00 00
 (000.000116)  can0  157   [8]  FF FF 8C F5 00 00 00 00
 (000.019306)  can0  151   [8]  01 01 19 00 00 00 00 00
 (000.000121)  can0  155   [8]  00 00 00 00 FF FF 79 A5
 (000.000119)  can0  156   [8]  00 00 86 5B 00 00 00 00
 (000.000133)  can0  157   [8]  FF FF 87 6B 00 00 00 00
 (000.019740)  can0  151   [8]  01 01 19 00 00 00 00 00
 (000.000131)  can0  155   [8]  00 00 00 00 FF FF 79 A5
 (000.000115)  can0  156   [8]  00 00 86 5B 00 00 00 00
 (000.000111)  can0  157   [8]  FF FF 87 6B 00 00 00 00
 (000.019299)  can0  151   [8]  01 01 19 00 00 00 00 00
 (000.000130)  can0  155   [8]  00 00 00 00 FF FF 79 A5
 (000.000127)  can0  156   [8]  00 00 86 5B 00 00 00 00
 (000.000099)  can0  157   [8]  FF FF 81 E0 00 00 00 00
 (000.019774)  can0  151   [8]  01 01 19 00 00 00 00 00
 (000.000070)  can0  155   [8]  00 00 00 00 FF FF 79 A5
 (000.000112)  can0  156   [8]  00 00 86 5B 00 00 00 00
 (000.000135)  can0  157   [8]  FF FF 7C 55 00 00 00 00
 (000.020159)  can0  151   [8]  01 01 19 00 00 00 00 00
 (000.000101)  can0  155   [8]  00 00 00 00 FF FF 79 A5
 (000.000118)  can0  156   [8]  00 00 86 5B 00 00 00 00
 (000.000133)  can0  157   [8]  FF FF 7C 55 00 00 00 00
 (000.018927)  can0  151   [8]  01 01 19 00 00 00 00 00
 (000.000118)  can0  155   [8]  00 00 00 00 FF FF 79 A5
 (000.000117)  can0  156   [8]  00 00 86 5B 00 00 00 00
 (000.000116)  can0  157   [8]  FF FF 79 A5 00 00 00 00
 (000.019816)  can0  151   [8]  01 01 19 00 00 00 00 00
 (000.000115)  can0  155   [8]  00 00 00 00 FF FF 79 A5
 (000.000126)  can0  156   [8]  00 00 86 5B 00 00 00 00
 (000.000119)  can0  157   [8]  FF FF 79 A5 00 00 00 00
 (000.019945)  can0  151   [8]  01 01 19 00 00 00 00 00
 (000.000092)  can0  155   [8]  00 00 00 00 FF FF 79 A5
 (000.000133)  can0  156   [8]  00 00 86 5B 00 00 00 00
 (000.000110)  can0  157   [8]  FF FF 7F 30 00 00 00 00
 (000.019720)  can0  151   [8]  01 01 19 00 00 00 00 00
 (000.000130)  can0  155   [8]  00 00 00 00 FF FF 79 A5
 (000.000113)  can0  156   [8]  00 00 86 5B 00 00 00 00
 (000.000127)  can0  157   [8]  FF FF 84 BB 00 00 00 00
 (000.018774)  can0  151   [8]  01 01 19 00 00 00 00 00
 (000.000126)  can0  155   [8]  00 00 00 00 FF FF 79 A5
 (000.000117)  can0  156   [8]  00 00 86 5B 00 00 00 00
 (000.000106)  can0  157   [8]  FF FF 84 BB 00 00 00 00
 (000.019649)  can0  151   [8]  01 01 19 00 00 00 00 00
 (000.000111)  can0  155   [8]  00 00 00 00 FF FF 79 A5
 (000.000135)  can0  156   [8]  00 00 86 5B 00 00 00 00
 (000.000105)  can0  157   [8]  FF FF 8A 45 00 00 00 00
 (000.019834)  can0  151   [8]  01 01 19 00 00 00 00 00
 (000.000123)  can0  155   [8]  00 00 00 00 FF FF 79 A5
 (000.000116)  can0  156   [8]  00 00 86 5B 00 00 00 00
 (000.000142)  can0  157   [8]  FF FF 8A 45 00 00 00 00
 (000.020142)  can0  151   [8]  01 01 19 00 00 00 00 00
 (000.000114)  can0  155   [8]  00 00 00 00 FF FF 79 A5
 (000.000121)  can0  156   [8]  00 00 86 5B 00 00 00 00
 (000.000122)  can0  157   [8]  FF FF 8F D0 00 00 00 00
 (000.019159)  can0  151   [8]  01 01 19 00 00 00 00 00
 (000.000109)  can0  155   [8]  00 00 00 00 FF FF 79 A5
 (000.000120)  can0  156   [8]  00 00 86 5B 00 00 00 00
 (000.000132)  can0  157   [8]  FF FF 95 5B 00 00 00 00
 (000.019539)  can0  151   [8]  01 01 19 00 00 00 00 00
 (000.000105)  can0  155   [8]  00 00 00 00 FF FF 79 A5
 (000.000116)  can0  156   [8]  00 00 86 5B 00 00 00 00
 (000.000133)  can0  157   [8]  FF FF 95 5B 00 00 00 00
 (000.020280)  can0  151   [8]  01 01 19 00 00 00 00 00
 (000.000108)  can0  155   [8]  00 00 00 00 FF FF 79 A5
 (000.000126)  can0  156   [8]  00 00 86 5B 00 00 00 00
 (000.000117)  can0  157   [8]  FF FF 9A E6 00 00 00 00
 (000.019467)  can0  151   [8]  01 01 19 00 00 00 00 00
 (000.000063)  can0  155   [8]  00 00 00 00 FF FF 79 A5
 (000.000093)  can0  156   [8]  00 00 86 5B 00 00 00 00
 (000.000132)  can0  157   [8]  FF FF 9A E6 00 00 00 00
 (000.019091)  can0  151   [8]  01 01 19 00 00 00 00 00
 (000.000129)  can0  155   [8]  00 00 00 00 FF FF 79 A5
 (000.000108)  can0  156   [8]  00 00 86 5B 00 00 00 00
 (000.000116)  can0  157   [8]  FF FF A0 71 00 00 00 00
 (000.019815)  can0  151   [8]  01 01 19 00 00 00 00 00
 (000.000104)  can0  155   [8]  00 00 00 00 FF FF 79 A5
 (000.000133)  can0  156   [8]  00 00 86 5B 00 00 00 00
 (000.000107)  can0  157   [8]  FF FF A5 FB 00 00 00 00
 (000.020136)  can0  151   [8]  01 01 19 00 00 00 00 00
 (000.000101)  can0  155   [8]  00 00 00 00 FF FF 79 A5
 (000.000115)  can0  156   [8]  00 00 86 5B 00 00 00 00
 (000.000130)  can0  157   [8]  FF FF A5 FB 00 00 00 00
 (000.019346)  can0  151   [8]  01 01 19 00 00 00 00 00
 (000.000103)  can0  155   [8]  00 00 00 00 FF FF 79 A5
 (000.000172)  can0  156   [8]  00 00 86 5B 00 00 00 00
 (000.000077)  can0  157   [8]  FF FF AB 86 00 00 00 00
 (000.019381)  can0  151   [8]  01 01 19 00 00 00 00 00
 (000.000108)  can0  155   [8]  00 00 00 00 FF FF 79 A5
 (000.000127)  can0  156   [8]  00 00 86 5B 00 00 00 00
 (000.000115)  can0  157   [8]  FF FF AB 86 00 00 00 00
 (000.020016)  can0  151   [8]  01 01 19 00 00 00 00 00
 (000.000103)  can0  155   [8]  00 00 00 00 FF FF 79 A5
 (000.000124)  can0  156   [8]  00 00 86 5B 00 00 00 00
 (000.000128)  can0  157   [8]  FF FF B1 11 00 00 00 00
 (000.019831)  can0  151   [8]  01 01 19 00 00 00 00 00
 (000.000060)  can0  155   [8]  00 00 00 00 FF FF 79 A5
 (000.000116)  can0  156   [8]  00 00 86 5B 00 00 00 00
 (000.000121)  can0  157   [8]  FF FF B6 9C 00 00 00 00
 (000.019056)  can0  151   [8]  01 01 19 00 00 00 00 00
 (000.000110)  can0  155   [8]  00 00 00 00 FF FF 79 A5
 (000.000100)  can0  156   [8]  00 00 86 5B 00 00 00 00
 (000.000136)  can0  157   [8]  FF FF B6 9C 00 00 00 00
 (000.019981)  can0  151   [8]  01 01 19 00 00 00 00 00
 (000.000116)  can0  155   [8]  00 00 00 00 FF FF 79 A5
 (000.000124)  can0  156   [8]  00 00 86 5B 00 00 00 00
 (000.000120)  can0  157   [8]  FF FF BC 27 00 00 00 00
 (000.019954)  can0  151   [8]  01 01 19 00 00 00 00 00
 (000.000072)  can0  155   [8]  00 00 00 00 FF FF 79 A5
 (000.000102)  can0  156   [8]  00 00 86 5B 00 00 00 00
 (000.000117)  can0  157   [8]  FF FF BC 27 00 00 00 00
 (000.019967)  can0  151   [8]  01 01 19 00 00 00 00 00
 (000.000112)  can0  155   [8]  00 00 00 00 FF FF 79 A5
 (000.000120)  can0  156   [8]  00 00 86 5B 00 00 00 00
 (000.000126)  can0  157   [8]  FF FF C1 B1 00 00 00 00
 (000.020094)  can0  151   [8]  01 01 19 00 00 00 00 00
 (000.000122)  can0  155   [8]  00 00 00 00 FF FF 79 A5
 (000.000167)  can0  156   [8]  00 00 86 5B 00 00 00 00
 (000.000083)  can0  157   [8]  FF FF C7 3C 00 00 00 00
 (000.018647)  can0  151   [8]  01 01 19 00 00 00 00 00
 (000.000111)  can0  155   [8]  00 00 00 00 FF FF 79 A5
 (000.000154)  can0  156   [8]  00 00 86 5B 00 00 00 00
 (000.000099)  can0  157   [8]  FF FF C7 3C 00 00 00 00
 (000.019649)  can0  151   [8]  01 01 19 00 00 00 00 00
 (000.000102)  can0  155   [8]  00 00 00 00 FF FF 79 A5
 (000.000152)  can0  156   [8]  00 00 86 5B 00 00 00 00
 (000.000099)  can0  157   [8]  FF FF CC C7 00 00 00 00
 (000.019490)  can0  151   [8]  01 01 19 00 00 00 00 00
 (000.000119)  can0  155   [8]  00 00 00 00 FF FF 79 A5
 (000.000116)  can0  156   [8]  00 00 86 5B 00 00 00 00
 (000.000176)  can0  157   [8]  FF FF CC C7 00 00 00 00
 (000.020313)  can0  151   [8]  01 01 19 00 00 00 00 00
 (000.000106)  can0  155   [8]  00 00 00 00 FF FF 79 A5
 (000.000127)  can0  156   [8]  00 00 86 5B 00 00 00 00
 (000.000115)  can0  157   [8]  FF FF D2 52 00 00 00 00
 (000.018888)  can0  151   [8]  01 01 19 00 00 00 00 00
 (000.000113)  can0  155   [8]  00 00 00 00 FF FF 79 A5
 (000.000156)  can0  156   [8]  00 00 86 5B 00 00 00 00
 (000.000087)  can0  157   [8]  FF FF D7 DD 00 00 00 00
 (000.019677)  can0  151   [8]  01 01 19 00 00 00 00 00
 (000.000114)  can0  155   [8]  00 00 00 00 FF FF 79 A5
 (000.000134)  can0  156   [8]  00 00 86 5B 00 00 00 00
 (000.000175)  can0  157   [8]  FF FF D7 DD 00 00 00 00
 (000.019769)  can0  151   [8]  01 01 19 00 00 00 00 00
 (000.000103)  can0  155   [8]  00 00 00 00 FF FF 79 A5
 (000.000129)  can0  156   [8]  00 00 86 5B 00 00 00 00
 (000.000129)  can0  157   [8]  FF FF DD 67 00 00 00 00
 (000.020332)  can0  151   [8]  01 01 19 00 00 00 00 00
 (000.000076)  can0  155   [8]  00 00 00 00 FF FF 79 A5
 (000.000123)  can0  156   [8]  00 00 86 5B 00 00 00 00
 (000.000120)  can0  157   [8]  FF FF E2 F2 00 00 00 00
 (000.020154)  can0  151   [8]  01 01 19 00 00 00 00 00
 (000.000104)  can0  155   [8]  00 00 00 00 FF FF 79 A5
 (000.000111)  can0  156   [8]  00 00 86 5B 00 00 00 00
 (000.000120)  can0  157   [8]  FF FF E2 F2 00 00 00 00
 (000.019301)  can0  151   [8]  01 01 19 00 00 00 00 00
 (000.000130)  can0  155   [8]  00 00 00 00 FF FF 79 A5
 (000.000107)  can0  156   [8]  00 00 86 5B 00 00 00 00
 (000.000203)  can0  157   [8]  FF FF E8 7D 00 00 00 00
 (000.019729)  can0  151   [8]  01 01 19 00 00 00 00 00
 (000.000114)  can0  155   [8]  00 00 00 00 FF FF 79 A5
 (000.000141)  can0  156   [8]  00 00 86 5B 00 00 00 00
 (000.000115)  can0  157   [8]  FF FF E8 7D 00 00 00 00
 (000.019276)  can0  151   [8]  01 01 1A 00 00 00 00 00
 (000.000113)  can0  155   [8]  00 00 00 00 FF FF 79 A5
 (000.000105)  can0  156   [8]  00 00 86 5B 00 00 00 00
 (000.000133)  can0  157   [8]  FF FF EE 08 00 00 00 00
 (000.018991)  can0  151   [8]  01 01 1B 00 00 00 00 00
 (000.000120)  can0  155   [8]  00 00 00 00 FF FF 79 A5
 (000.000147)  can0  156   [8]  00 00 86 5B 00 00 00 00
 (000.000093)  can0  157   [8]  FF FF F4 04 00 00 00 00
 (000.019708)  can0  151   [8]  01 01 1C 00 00 00 00 00
 (000.000120)  can0  155   [8]  00 00 00 00 FF FF 79 A5
 (000.000125)  can0  156   [8]  00 00 86 5B 00 00 00 00
 (000.000108)  can0  157   [8]  FF FF F4 04 00 00 00 00
 (000.020326)  can0  151   [8]  01 01 1D 00 00 00 00 00
 (000.000118)  can0  155   [8]  00 00 00 00 FF FF 79 A5
 (000.000113)  can0  156   [8]  00 00 86 5B 00 00 00 00
 (000.000115)  can0  157   [8]  FF FF FA 72 00 00 00 00
 (000.019242)  can0  151   [8]  01 01 1F 00 00 00 00 00
 (000.000103)  can0  155   [8]  00 00 00 00 FF FF 79 A5
 (000.000148)  can0  156   [8]  00 00 86 5B 00 00 00 00
 (000.000102)  can0  157   [8]  FF FF FA 72 00 00 00 00
 (000.019657)  can0  151   [8]  01 01 22 00 00 00 00 00
 (000.000119)  can0  155   [8]  00 00 00 00 FF FF 79 A5
 (000.000115)  can0  156   [8]  00 00 86 5B 00 00 00 00
 (000.000140)  can0  157   [8]  00 00 01 C3 00 00 00 00
 (000.020082)  can0  151   [8]  01 01 25 00 00 00 00 00
 (000.000117)  can0  155   [8]  00 00 00 00 FF FF 79 A5
 (000.000130)  can0  156   [8]  00 00 86 5B 00 00 00 00
 (000.000112)  can0  157   [8]  00 00 09 F6 00 00 00 00
 (000.019214)  can0  151   [8]  01 01 27 00 00 00 00 00
 (000.000105)  can0  155   [8]  00 00 00 00 FF FF 79 A5
