  can0  155   [8]  00 00 00 00 00 00 00 00
  can0  155   [8]  00 00 00 00 00 00 00 00
  can0  155   [8]  00 00 00 00 00 00 00 00
  can0  155   [8]  00 00 00 00 00 00 00 00
  can0  157   [8]  00 00 00 00 00 00 00 00
  can0  156   [8]  00 00 00 00 00 00 00 00
  can0  157   [8]  00 00 00 00 00 00 00 00
  can0  156   [8]  00 00 00 00 00 00 00 00
  can0  157   [8]  00 00 00 00 00 00 00 00
  can0  157   [8]  00 00 00 00 00 00 00 00
  can0  156   [8]  00 00 00 00 00 00 00 00
  can0  156   [8]  00 00 00 00 00 00 00 00
  can0  155   [8]  00 00 00 00 00 00 00 00
  can0  155   [8]  00 00 00 00 00 00 00 00
  can0  155   [8]  00 00 00 00 00 00 00 00
  can0  157   [8]  00 00 00 00 00 00 00 00
  can0  157   [8]  00 00 00 00 00 00 00 00
  can0  155   [8]  00 00 00 00 00 00 00 00
  can0  155   [8]  00 00 00 00 00 00 00 00
  can0  156   [8]  00 00 00 00 00 00 00 00
  can0  156   [8]  00 00 00 00 00 00 00 00
  can0  157   [8]  00 00 00 00 00 00 00 00
  can0  156   [8]  00 00 00 00 00 00 00 00
  can0  156   [8]  00 00 00 00 00 00 00 00
  can0  155   [8]  00 00 00 00 00 00 00 00
  can0  157   [8]  00 00 00 00 00 00 00 00
  can0  156   [8]  00 00 00 00 00 00 00 00
  can0  156   [8]  00 00 00 00 00 00 00 00
  can0  157   [8]  00 00 00 00 00 00 00 00
  can0  157   [8]  00 00 00 00 00 00 00 00
  can0  156   [8]  00 00 00 00 00 00 00 00
  can0  156   [8]  00 00 00 00 00 00 00 00
  can0  156   [8]  00 00 00 00 00 00 00 00
  can0  156   [8]  00 00 00 00 00 00 00 00
  can0  155   [8]  00 00 00 00 00 00 00 00
  can0  157   [8]  00 00 00 00 00 00 00 00
  can0  155   [8]  00 00 00 00 00 00 00 00
  can0  155   [8]  00 00 00 00 00 00 00 00
  can0  155   [8]  00 00 00 00 00 00 00 00
  can0  156   [8]  00 00 00 00 00 00 00 00
  can0  155   [8]  00 00 00 00 00 00 00 00
  can0  157   [8]  00 00 00 00 00 00 00 00
  can0  156   [8]  00 00 00 00 00 00 00 00
  can0  156   [8]  00 00 00 00 00 00 00 00
  can0  155   [8]  00 00 02 3D 00 00 00 00
  can0  157   [8]  00 00 00 00 00 00 00 00
  can0  156   [8]  00 00 00 00 00 00 00 00
  can0  155   [8]  00 00 06 B8 00 00 00 00
  can0  155   [8]  00 00 00 00 00 00 00 00
  can0  155   [8]  00 00 00 00 00 00 00 00
  can0  156   [8]  00 00 00 00 00 00 00 00
  can0  156   [8]  00 00 00 00 00 00 00 00
  can0  155   [8]  00 00 14 27 00 00 00 00
  can0  155   [8]  00 00 14 00 00 00 00 00
  can0  155   [8]  00 00 00 00 00 00 00 00
  can0  156   [8]  00 00 00 00 00 00 00 00
  can0  156   [8]  00 00 00 00 00 00 00 00
  can0  155   [8]  00 00 23 D4 00 00 00 00
  can0  157   [8]  00 00 00 00 00 00 00 00
  can0  157   [8]  00 00 00 00 00 00 00 00
  can0  156   [8]  00 00 00 00 00 00 00 00
  can0  157   [8]  00 00 00 00 00 00 00 00
  can0  157   [8]  00 00 00 00 00 00 00 00
  can0  156   [8]  00 00 00 00 00 00 00 00
  can0  156   [8]  00 00 00 00 00 00 00 00
  can0  156   [8]  00 00 00 00 00 00 00 00
  can0  156   [8]  00 00 00 00 00 00 00 00
  can0  156   [8]  00 00 00 00 00 00 00 00
  can0  156   [8]  00 00 00 00 00 00 00 00
  can0  157   [8]  00 00 00 00 00 00 00 00
  can0  157   [8]  00 00 00 00 00 00 00 00
  can0  156   [8]  00 00 00 00 00 00 00 00
  can0  156   [8]  00 00 00 00 00 00 00 00
  can0  156   [8]  00 00 00 00 00 00 00 00
  can0  156   [8]  00 00 00 00 00 00 00 00
  can0  157   [8]  00 00 00 00 00 00 00 00
  can0  157   [8]  00 00 00 00 00 00 00 00
  can0  156   [8]  00 00 00 00 00 00 00 00
  can0  156   [8]  00 00 00 00 00 00 00 00
  can0  156   [8]  00 00 00 00 00 00 00 00
  can0  156   [8]  00 00 00 00 00 00 00 00
  can0  156   [8]  00 00 00 00 00 00 00 00
  can0  156   [8]  00 00 00 00 00 00 00 00
  can0  157   [8]  00 00 00 00 00 00 00 00
  can0  157   [8]  00 00 00 00 00 00 00 00
  can0  157   [8]  00 00 00 00 00 00 00 00
  can0  155   [8]  00 00 2C C9 00 00 00 00
  can0  155   [8]  00 00 00 00 00 00 00 00
  can0  155   [8]  00 00 00 00 00 00 00 00
  can0  156   [8]  00 00 00 00 00 00 00 00
  can0  155   [8]  00 00 2C C9 00 00 00 00
  can0  155   [8]  00 00 2C 00 00 00 00 00
  can0  155   [8]  00 00 00 00 00 00 00 00
  can0  155   [8]  00 00 2C C9 00 00 00 00
  can0  157   [8]  00 00 00 00 00 00 00 00
  can0  155   [8]  00 00 2C C9 00 00 00 00
  can0  155   [8]  00 00 2C 00 00 00 00 00
  can0  155   [8]  00 00 00 00 00 00 00 00
  can0  156   [8]  00 00 00 00 00 00 00 00
  can0  156   [8]  00 00 00 00 00 00 00 00
  can0  156   [8]  00 00 00 00 00 00 00 00
  can0  155   [8]  00 00 2C C9 00 00 00 00
  can0  155   [8]  00 00 2C C9 00 00 00 00
  can0  155   [8]  00 00 00 00 00 00 00 00
  can0  156   [8]  00 00 00 00 00 00 00 00
  can0  157   [8]  00 00 00 00 00 00 00 00
  can0  155   [8]  00 00 2C C9 00 00 00 00
  can0  155   [8]  00 00 2C C9 00 00 00 00
  can0  155   [8]  00 00 00 00 00 00 00 00
  can0  156   [8]  00 00 00 00 00 00 00 00
  can0  156   [8]  00 00 00 00 00 00 00 00
  can0  157   [8]  00 00 00 00 00 00 00 00
  can0  157   [8]  00 00 00 00 00 00 00 00
  can0  156   [8]  00 00 00 00 00 00 00 00
  can0  156   [8]  00 00 00 00 00 00 00 00
  can0  157   [8]  00 00 00 00 00 00 00 00
  can0  156   [8]  00 00 00 00 00 00 00 00
  can0  156   [8]  00 00 00 00 00 00 00 00
  can0  156   [8]  00 00 00 00 00 00 00 00
  can0  156   [8]  00 00 00 00 00 00 00 00
  can0  156   [8]  00 00 00 00 00 00 00 00
  can0  156   [8]  00 00 00 00 00 00 00 00
  can0  157   [8]  00 00 00 00 00 00 00 00
  can0  155   [8]  00 00 37 FB 00 00 00 00
  can0  157   [8]  00 00 00 00 00 00 00 00
  can0  156   [8]  00 00 00 00 00 00 00 00
  can0  156   [8]  00 00 00 00 00 00 00 00
  can0  157   [8]  00 00 00 00 00 00 00 00
  can0  156   [8]  00 00 00 00 00 00 00 00
  can0  156   [8]  00 00 00 00 00 00 00 00
  can0  157   [8]  00 00 00 00 00 00 00 00
  can0  156   [8]  00 00 00 00 00 00 00 00
  can0  157   [8]  00 00 00 00 00 00 00 00
  can0  156   [8]  00 00 00 00 00 00 00 00
  can0  155   [8]  00 00 45 6B 00 00 00 00
  can0  157   [8]  00 00 00 00 00 00 00 00
  can0  156   [8]  00 00 00 00 00 00 00 00
  can0  156   [8]  00 00 00 00 00 00 00 00
  can0  156   [8]  00 00 00 00 00 00 00 00
  can0  157   [8]  00 00 00 00 00 00 00 00
  can0  156   [8]  00 00 00 00 00 00 00 00
  can0  157   [8]  00 00 00 00 00 00 00 00
  can0  157   [8]  00 00 00 00 00 00 00 00
  can0  155   [8]  00 00 50 9D 00 00 00 00
  can0  157   [8]  00 00 00 00 00 00 00 00
  can0  156   [8]  00 00 00 00 00 00 00 00
  can0  156   [8]  00 00 00 00 00 00 00 00
  can0  156   [8]  00 00 00 00 00 00 00 00
  can0  156   [8]  00 00 00 00 00 00 00 00
  can0  157   [8]  00 00 00 00 00 00 00 00
  can0  156   [8]  00 00 00 00 00 00 00 00
  can0  157   [8]  00 00 00 00 00 00 00 00
  can0  156   [8]  00 00 00 00 00 00 00 00
  can0  155   [8]  00 00 50 9D 00 00 00 00
  can0  155   [8]  00 00 50 9D 00 00 00 00
  can0  155   [8]  00 00 00 00 00 00 00 00
  can0  156   [8]  00 00 00 00 00 00 00 00
  can0  157   [8]  00 00 00 00 00 00 00 00
  can0  156   [8]  00 00 00 00 00 00 00 00
  can0  157   [8]  00 00 00 00 00 00 00 00
  can0  156   [8]  00 00 00 00 00 00 00 00
  can0  156   [8]  00 00 00 00 00 00 00 00
  can0  156   [8]  00 00 00 00 00 00 00 00
  can0  155   [8]  00 00 5B CF 00 00 00 00
  can0  155   [8]  00 00 5B 00 00 00 00 00
  can0  155   [8]  00 00 00 00 00 00 00 00
  can0  157   [8]  00 00 00 00 00 00 00 00
  can0  156   [8]  00 00 00 00 00 00 00 00
  can0  156   [8]  00 00 00 00 00 00 00 00
  can0  156   [8]  00 00 00 00 00 00 00 00
  can0  157   [8]  00 00 00 00 00 00 00 00
  can0  157   [8]  00 00 00 00 00 00 00 00
  can0  155   [8]  00 00 72 34 00 00 00 00
  can0  155   [8]  00 00 72 00 00 00 00 00
  can0  155   [8]  00 00 00 00 00 00 00 00
  can0  157   [8]  00 00 00 00 00 00 00 00
  can0  157   [8]  00 00 00 00 00 00 00 00
  can0  155   [8]  00 00 72 34 00 00 00 00
  can0  155   [8]  00 00 00 00 00 00 00 00
  can0  157   [8]  00 00 00 00 00 00 00 00
  can0  156   [8]  00 00 00 00 00 00 00 00
  can0  156   [8]  00 00 00 00 00 00 00 00
  can0  155   [8]  00 00 72 34 00 00 00 00
  can0  156   [8]  00 00 00 00 00 00 00 00
  can0  157   [8]  00 00 00 00 00 00 00 00
  can0  156   [8]  00 00 00 00 00 00 00 00
  can0  155   [8]  00 00 78 EB 00 00 00 00
  can0  157   [8]  00 00 00 00 00 00 00 00
  can0  156   [8]  00 00 00 00 00 00 00 00
  can0  156   [8]  00 00 00 00 00 00 00 00
  can0  156   [8]  00 00 00 00 00 00 00 00
  can0  157   [8]  00 00 00 00 00 00 00 00
  can0  156   [8]  00 00 00 00 00 00 00 00
  can0  157   [8]  00 00 00 00 00 00 00 00
  can0  157   [8]  00 00 00 00 00 00 00 00
  can0  155   [8]  00 00 88 98 00 00 00 00
  can0  155   [8]  00 00 00 00 00 00 00 00
  can0  155   [8]  00 00 00 00 00 00 00 00
  can0  157   [8]  00 00 00 00 00 00 00 00
  can0  156   [8]  00 00 00 00 00 00 00 00
  can0  156   [8]  00 00 00 00 00 00 00 00
  can0  156   [8]  00 00 00 00 00 00 00 00
  can0  156   [8]  00 00 00 00 00 00 00 00
  can0  157   [8]  00 00 00 00 00 00 00 00
  can0  156   [8]  00 00 00 00 00 00 00 00
  can0  156   [8]  00 00 00 00 00 00 00 00
  can0  157   [8]  00 00 00 00 00 00 00 00
  can0  155   [8]  00 00 93 CA 00 00 00 00
  can0  155   [8]  00 00 93 CA 00 00 00 00
  can0  155   [8]  00 00 00 00 00 00 00 00
  can0  156   [8]  00 00 00 00 00 00 00 00
  can0  157   [8]  00 00 00 00 00 00 00 00
  can0  157   [8]  00 00 00 00 00 00 00 00
  can0  156   [8]  00 00 00 00 00 00 00 00
  can0  157   [8]  00 00 00 00 00 00 00 00
  can0  155   [8]  00 00 B3 24 00 00 00 00
  can0  155   [8]  00 00 00 00 00 00 00 00
  can0  155   [8]  00 00 00 00 00 00 00 00
  can0  156   [8]  00 00 00 00 00 00 00 00
  can0  157   [8]  00 00 00 00 00 00 00 00
  can0  155   [8]  00 00 B3 24 00 00 00 00
  can0  155   [8]  00 00 B3 24 00 00 00 00
  can0  155   [8]  00 00 00 00 00 00 00 00
  can0  156   [8]  00 00 00 00 00 00 00 00
  can0  156   [8]  00 00 00 00 00 00 00 00
  can0  156   [8]  00 00 00 00 00 00 00 00
  can0  156   [8]  00 00 00 00 00 00 00 00
  can0  156   [8]  00 00 00 00 00 00 00 00
  can0  156   [8]  00 00 00 00 00 00 00 00
  can0  157   [8]  00 00 00 00 00 00 00 00
  can0  156   [8]  00 00 00 00 00 00 00 00
  can0  156   [8]  00 00 00 00 00 00 00 00
  can0  155   [8]  00 00 B7 9E 00 00 00 00
  can0  157   [8]  00 00 00 00 00 00 00 00
  can0  156   [8]  00 00 00 00 00 00 00 00
  can0  157   [8]  00 00 00 00 00 00 00 00
  can0  156   [8]  00 00 00 00 00 00 00 00
  can0  155   [8]  00 00 CE 03 00 00 00 00
  can0  156   [8]  00 00 00 00 00 00 00 00
  can0  156   [8]  00 00 00 00 00 00 00 00
  can0  156   [8]  00 00 00 00 00 00 00 00
  can0  156   [8]  00 00 00 00 00 00 00 00
  can0  157   [8]  00 00 00 00 00 00 00 00
  can0  157   [8]  00 00 00 00 00 00 00 00
  can0  157   [8]  00 00 00 00 00 00 00 00
  can0  155   [8]  00 00 CE 03 00 00 00 00
  can0  157   [8]  00 00 00 00 00 00 00 00
  can0  156   [8]  00 00 00 00 00 00 00 00
  can0  156   [8]  00 00 00 00 00 00 00 00
  can0  156   [8]  00 00 00 00 00 00 00 00
  can0  156   [8]  00 00 00 00 00 00 00 00
  can0  157   [8]  00 00 00 00 00 00 00 00
  can0  156   [8]  00 00 00 00 00 00 00 00
  can0  156   [8]  00 00 00 00 00 00 00 00
  can0  155   [8]  00 00 EB 1F 00 00 00 00
  can0  155   [8]  00 00 EB 1F 00 00 00 00
  can0  157   [8]  00 00 00 00 00 00 00 00
  can0  157   [8]  00 00 00 00 00 00 00 00
  can0  155   [8]  00 00 EB 1F 00 00 00 00
  can0  157   [8]  00 00 00 00 00 00 00 00
  can0  155   [8]  00 00 EB 1F 00 00 00 00
  can0  155   [8]  00 00 EB 1F 00 00 00 00
  can0  155   [8]  00 00 00 00 00 00 00 00
  can0  157   [8]  00 00 00 00 00 00 00 00
  can0  155   [8]  00 00 EB 1F 00 00 00 00
  can0  157   [8]  00 00 00 00 00 00 00 00
  can0  156   [8]  00 00 00 00 00 00 00 00
  can0  155   [8]  00 00 EB 1F 00 00 00 00
  can0  155   [8]  00 00 EB 1F 00 00 00 00
  can0  155   [8]  00 00 00 00 00 00 00 00
  can0  155   [8]  00 00 EB 1F 00 00 00 00
  can0  157   [8]  00 00 00 00 00 00 00 00
  can0  157   [8]  00 00 00 00 00 00 00 00
  can0  156   [8]  00 00 00 00 00 00 00 00
  can0  156   [8]  00 00 00 00 00 00 00 00
  can0  155   [8]  00 00 EB 1F 00 00 00 00
  can0  157   [8]  00 00 00 00 00 00 00 00
  can0  156   [8]  00 00 00 00 00 00 00 00
  can0  157   [8]  00 00 00 00 00 00 00 00
  can0  156   [8]  00 00 00 00 00 00 00 00
  can0  156   [8]  00 00 00 00 00 00 00 00
  can0  156   [8]  00 00 00 00 00 00 00 00
  can0  157   [8]  00 00 00 00 00 00 00 00
  can0  157   [8]  00 00 00 00 00 00 00 00
  can0  156   [8]  00 00 00 00 00 00 00 00
  can0  156   [8]  00 00 00 00 00 00 00 00
  can0  156   [8]  00 00 00 00 00 00 00 00
  can0  156   [8]  00 00 00 00 00 00 00 00
  can0  156   [8]  00 00 00 00 00 00 00 00
  can0  156   [8]  00 00 00 00 00 00 00 00
  can0  157   [8]  00 00 00 00 00 00 00 00
  can0  155   [8]  00 00 FD 09 00 00 00 00
  can0  155   [8]  00 00 FD 09 00 00 00 00
  can0  155   [8]  00 00 00 00 00 00 00 00
  can0  157   [8]  00 00 00 00 00 00 00 00
  can0  155   [8]  00 00 FD 09 00 00 00 00
  can0  157   [8]  00 00 00 00 00 00 00 00
  can0  155   [8]  00 00 FD 09 00 00 00 00
  can0  155   [8]  00 00 FD 09 00 00 00 00
  can0  155   [8]  00 00 00 00 00 00 00 00
  can0  156   [8]  00 00 00 00 00 00 00 00
  can0  156   [8]  00 00 00 00 00 00 00 00
  can0  157   [8]  00 00 00 00 00 00 00 00
  can0  156   [8]  00 00 00 00 00 00 00 00
  can0  156   [8]  00 00 00 00 00 00 00 00
  can0  155   [8]  00 00 FD 09 00 00 00 00
  can0  157   [8]  00 00 00 00 00 00 00 00
  can0  156   [8]  00 00 00 00 00 00 00 00
  can0  156   [8]  00 00 00 00 00 00 00 00
  can0  156   [8]  00 00 00 00 00 00 00 00
  can0  156   [8]  00 00 00 00 00 00 00 00
  can0  155   [8]  00 00 FD 09 00 00 00 00
  can0  155   [8]  00 00 FD 09 00 00 00 00
  can0  155   [8]  00 00 00 00 00 00 00 00
  can0  155   [8]  00 01 0E F3 00 00 00 00
  can0  155   [8]  00 01 0E F3 00 00 00 00
  can0  155   [8]  00 00 00 00 00 00 00 00
  can0  156   [8]  00 00 00 00 00 00 00 00
  can0  156   [8]  00 00 00 00 00 00 00 00
  can0  156   [8]  00 00 00 00 00 00 00 00
  can0  156   [8]  00 00 00 00 00 00 00 00
  can0  155   [8]  00 01 25 58 00 00 00 00
  can0  155   [8]  00 01 25 00 00 00 00 00
  can0  155   [8]  00 01 25 00 00 00 00 00
  can0  156   [8]  00 00 00 00 00 00 00 00
  can0  157   [8]  00 00 00 00 00 00 00 00
  can0  156   [8]  00 00 00 00 00 00 00 00
  can0  156   [8]  00 00 00 00 00 00 00 00
  can0  156   [8]  00 00 00 00 00 00 00 00
  can0  155   [8]  00 01 2C 0F 00 00 00 00
  can0  157   [8]  00 00 00 00 00 00 00 00
  can0  157   [8]  00 00 00 00 00 00 00 00
  can0  155   [8]  00 01 2C 0F 00 00 00 00
  can0  156   [8]  00 00 00 00 00 00 00 00
  can0  156   [8]  00 00 00 00 00 00 00 00
  can0  155   [8]  00 01 2C 0F 00 00 00 00
  can0  155   [8]  00 01 2C 0F 00 00 00 00
  can0  155   [8]  00 00 00 00 00 00 00 00
  can0  156   [8]  00 00 00 00 00 00 00 00
  can0  157   [8]  00 00 00 00 00 00 00 00
  can0  157   [8]  00 00 00 00 00 00 00 00
  can0  156   [8]  00 00 00 00 00 00 00 00
  can0  157   [8]  00 00 00 00 00 00 00 00
  can0  156   [8]  00 00 00 00 00 00 00 00
  can0  156   [8]  00 00 00 00 00 00 00 00
  can0  157   [8]  00 00 00 00 00 00 00 00
  can0  155   [8]  00 01 2C 0F 00 00 00 00
  can0  155   [8]  00 01 2C 0F 00 00 00 00
  can0  155   [8]  00 00 00 00 00 00 00 00
  can0  156   [8]  00 00 00 00 00 00 00 00
  can0  157   [8]  00 00 00 00 00 00 00 00
  can0  156   [8]  00 00 00 00 00 00 00 00
  can0  156   [8]  00 00 00 00 00 00 00 00
  can0  156   [8]  00 00 00 00 00 00 00 00
  can0  156   [8]  00 00 00 00 00 00 00 00
  can0  157   [8]  00 00 00 00 00 00 00 00
  can0  155   [8]  00 01 2C 0F 00 00 00 00
  can0  156   [8]  00 00 00 00 00 00 00 00
  can0  157   [8]  00 00 00 00 00 00 00 00
  can0  156   [8]  00 00 00 00 00 00 00 00
  can0  156   [8]  00 00 00 00 00 00 00 00
  can0  155   [8]  00 01 2C 0F 00 00 00 00
  can0  155   [8]  00 01 2C 0F 00 00 00 00
  can0  155   [8]  00 00 00 00 00 00 00 00
  can0  157   [8]  00 00 00 00 00 00 00 00
  can0  155   [8]  00 01 2C 0F 00 00 00 00
  can0  155   [8]  00 01 2C 0F 00 00 00 00
  can0  155   [8]  00 01 2C 0F 00 00 00 00
  can0  156   [8]  00 00 00 00 00 00 00 00
  can0  156   [8]  00 00 00 00 00 00 00 00
  can0  155   [8]  00 01 2C 0F 00 00 00 00
  can0  155   [8]  00 01 2C 0F 00 00 00 00
  can0  155   [8]  00 00 00 00 00 00 00 00
  can0  157   [8]  00 00 00 00 00 00 00 00
  can0  157   [8]  00 00 00 00 00 00 00 00
  can0  155   [8]  00 01 2C 0F 00 00 00 00
  can0  157   [8]  00 00 00 00 00 00 00 00
  can0  156   [8]  00 00 00 00 00 00 00 00
  can0  156   [8]  00 00 00 00 00 00 00 00
  can0  156   [8]  00 00 00 00 00 00 00 00
  can0  157   [8]  00 00 00 00 00 00 00 00
  can0  156   [8]  00 00 00 00 00 00 00 00
  can0  157   [8]  00 00 00 00 00 00 00 00
  can0  156   [8]  00 00 00 00 00 00 00 00
  can0  156   [8]  00 00 00 00 00 00 00 00
  can0  157   [8]  00 00 00 00 00 00 00 00
  can0  157   [8]  00 00 00 00 00 00 00 00
  can0  156   [8]  00 00 00 00 00 00 00 00
  can0  156   [8]  00 00 00 00 00 00 00 00
  can0  155   [8]  00 01 2C 0F 00 00 00 00
  can0  155   [8]  00 01 2C 0F 00 00 00 00
  can0  155   [8]  00 00 00 00 00 00 00 00
  can0  157   [8]  00 00 00 00 00 00 00 00
  can0  156   [8]  00 00 00 00 00 00 00 00
  can0  156   [8]  00 00 00 00 00 00 00 00
  can0  156   [8]  00 00 00 00 00 00 00 00
  can0  157   [8]  00 00 00 00 00 00 00 00
  can0  155   [8]  00 01 2C 0F 00 00 00 00
  can0  157   [8]  00 00 00 00 00 00 00 00
  can0  157   [8]  00 00 00 00 00 00 00 00
  can0  156   [8]  00 00 00 00 00 00 00 00
  can0  156   [8]  00 00 00 00 00 00 00 00
  can0  156   [8]  00 00 00 00 00 00 00 00
  can0  157   [8]  00 00 00 00 00 00 00 00
  can0  155   [8]  00 01 2C 0F 00 00 00 00
  can0  155   [8]  00 01 2C 0F 00 00 00 00
  can0  155   [8]  00 00 00 00 00 00 00 00
  can0  156   [8]  00 00 00 00 00 00 00 00
  can0  156   [8]  00 00 00 00 00 00 00 00
  can0  156   [8]  00 00 00 00 00 00 00 00
  can0  155   [8]  00 01 2C 0F 00 00 00 00
  can0  157   [8]  00 00 00 00 00 00 00 00
  can0  157   [8]  00 00 00 00 00 00 00 00
  can0  155   [8]  00 01 2C 0F 00 00 00 00
  can0  155   [8]  00 01 2C 0F 00 00 00 00
  can0  155   [8]  00 01 2C 0F 00 00 00 00
  can0  157   [8]  00 00 00 00 00 00 00 00
  can0  156   [8]  00 00 00 00 00 00 00 00
  can0  156   [8]  00 00 00 00 00 00 00 00
  can0  156   [8]  00 00 00 00 00 00 00 00
  can0  155   [8]  00 01 08 97 00 00 00 00
  can0  155   [8]  00 01 08 97 00 00 00 00
  can0  155   [8]  00 00 C1 A7 00 00 00 00
  can0  156   [8]  00 00 00 00 00 00 00 00
  can0  156   [8]  00 00 00 00 00 00 00 00
  can0  155   [8]  00 00 00 00 00 00 00 00
  can0  155   [8]  00 00 00 00 00 00 00 00
  can0  157   [8]  00 00 00 00 00 00 00 00
  can0  157   [8]  00 00 00 00 00 00 00 00
  can0  156   [8]  00 00 00 00 00 00 00 00
  can0  157   [8]  00 00 00 00 00 00 00 00
  can0  157   [8]  00 00 00 00 00 00 00 00
  can0  155   [8]  00 00 00 00 00 00 00 00
  can0  157   [8]  00 00 00 00 00 00 00 00
  can0  156   [8]  00 00 00 00 00 00 00 00
  can0  155   [8]  00 00 00 00 00 00 00 00
  can0  155   [8]  00 00 00 00 00 00 00 00
  can0  155   [8]  00 00 00 00 00 00 00 00
  can0  155   [8]  00 00 00 00 00 00 00 00
  can0  155   [8]  00 00 00 00 00 00 00 00
  can0  155   [8]  00 00 00 00 00 00 00 00
  can0  155   [8]  00 00 00 00 00 00 00 00
  can0  155   [8]  00 00 00 00 00 00 00 00
  can0  157   [8]  00 00 00 00 00 00 00 00
  can0  155   [8]  00 00 00 00 00 00 00 00
  can0  156   [8]  00 00 00 00 00 00 00 00
  can0  156   [8]  00 00 00 00 00 00 00 00
  can0  156   [8]  00 00 00 00 00 00 00 00
  can0  157   [8]  00 00 00 00 00 00 00 00
  can0  155   [8]  00 00 00 00 00 00 00 00
  can0  156   [8]  00 00 00 00 00 00 00 00
  can0  156   [8]  00 00 00 00 00 00 00 00
  can0  156   [8]  00 00 00 00 00 00 00 00
