  can0  155   [8]  00 00 00 00 00 00 00 00
  can0  155   [8]  00 00 00 00 00 00 00 00
  can0  155   [8]  00 00 00 00 00 00 00 00
  can0  155   [8]  00 00 00 00 00 00 00 00
  can0  155   [8]  00 00 00 00 00 00 00 00
  can0  155   [8]  00 00 00 00 00 00 00 00
  can0  155   [8]  00 00 00 00 00 00 00 00
  can0  155   [8]  00 00 00 00 00 00 00 00
  can0  155   [8]  00 00 00 00 00 00 00 00
  can0  155   [8]  00 00 00 00 00 00 00 00
  can0  155   [8]  00 00 00 00 00 00 00 00
  can0  155   [8]  00 00 02 3D 00 00 00 00
  can0  155   [8]  00 00 2F 06 00 00 00 00
  can0  155   [8]  00 00 2F 06 00 00 00 00
  can0  155   [8]  00 00 00 00 00 00 00 00
  can0  155   [8]  00 00 62 87 00 00 00 00
  can0  155   [8]  00 00 9E FD 00 00 00 00
  can0  155   [8]  00 00 9E FD 00 00 00 00
  can0  155   [8]  00 00 00 00 00 00 00 00
  can0  155   [8]  00 00 9E FD 00 00 00 00
  can0  155   [8]  00 00 00 00 00 00 00 00
  can0  155   [8]  00 00 00 00 00 00 00 00
  can0  155   [8]  00 00 9E FD 00 00 00 00
  can0  155   [8]  00 00 9E FD 00 00 00 00
  can0  155   [8]  00 00 9E FD FF FF 79 A5
  can0  155   [8]  00 00 9E FD FF 00 00 00
  can0  155   [8]  00 00 00 00 00 00 00 00
  can0  155   [8]  00 00 9E FD FF FF 4C DC
  can0  155   [8]  00 00 9E 00 00 00 00 00
  can0  155   [8]  00 00 00 00 00 00 00 00
  can0  155   [8]  00 00 9E FD FF FF 4C DC
  can0  155   [8]  00 00 00 00 00 00 00 00
  can0  155   [8]  00 00 9E FD FF FF 4C DC
  can0  155   [8]  00 00 9E FD FF FF 4C 00
  can0  155   [8]  00 00 9E FD FF FF 4C DC
  can0  155   [8]  00 00 9E FD 00 00 00 00
  can0  155   [8]  00 00 00 00 00 00 00 00
  can0  155   [8]  00 00 9E FD FF FF 4C DC
  can0  155   [8]  00 00 9E FD FF 00 00 00
  can0  155   [8]  00 00 9E FD 00 00 00 00
  can0  155   [8]  00 00 9E FD FF FF 4C DC
  can0  155   [8]  00 00 C0 93 00 00 00 00
  can0  155   [8]  00 00 00 00 00 00 00 00
  can0  155   [8]  00 00 9E FD FF FF 4C DC
  can0  155   [8]  00 00 9E FD FF FF 4C 00
  can0  155   [8]  00 00 00 00 00 00 00 00
  can0  155   [8]  00 00 9E FD FF FF 4C DC
  can0  155   [8]  00 00 9E 93 00 00 00 00
  can0  155   [8]  00 00 00 00 00 00 00 00
  can0  155   [8]  00 00 9E FD FF FF 4C DC
  can0  155   [8]  00 00 C0 93 00 00 00 00
  can0  155   [8]  00 00 00 00 00 00 00 00
  can0  155   [8]  00 00 9E FD FF FF 4C DC
  can0  155   [8]  00 00 9E FD FF FF 4C DC
  can0  155   [8]  00 00 9E FD FF FF 4C DC
  can0  155   [8]  00 00 C0 93 00 00 57 55
  can0  155   [8]  00 00 9E FD FF FF 4C DC
  can0  155   [8]  00 00 9E FD FF FF 4C DC
  can0  155   [8]  00 00 9E FD FF FF 4C DC
  can0  155   [8]  00 00 9E FD FF FF 4C DC
  can0  155   [8]  00 00 9E FD FF FF 4C DC
  can0  155   [8]  00 00 9E FD FF FF 57 55
  can0  155   [8]  FF FF 70 B0 00 00 00 00
  can0  155   [8]  00 00 9E FD FF FF 4C DC
  can0  155   [8]  00 00 9E FD 00 00 57 55
  can0  155   [8]  FF FF 70 B0 00 00 00 00
  can0  155   [8]  00 00 9E FD FF FF 4C DC
  can0  155   [8]  00 00 9E FD FF FF 4C DC
  can0  155   [8]  00 00 9E FD FF FF 4C DC
  can0  155   [8]  00 00 9E FD FF FF 4C DC
  can0  155   [8]  00 00 9E 93 00 00 57 55
  can0  155   [8]  FF FF 70 B0 00 00 00 00
  can0  155   [8]  00 00 9E FD FF FF 4C DC
  can0  155   [8]  00 00 9E FD FF 00 57 55
  can0  155   [8]  00 00 70 B0 00 00 00 00
  can0  155   [8]  00 00 9E FD FF FF 4C DC
  can0  155   [8]  00 00 C0 93 00 00 57 55
  can0  155   [8]  FF FF 70 B0 00 00 00 00
  can0  155   [8]  00 00 9E FD FF FF 4C DC
  can0  155   [8]  00 00 9E FD FF FF 4C DC
  can0  155   [8]  00 00 9E FD FF FF 4C 55
  can0  155   [8]  FF FF 70 B0 00 00 00 00
  can0  155   [8]  00 00 9E FD FF FF 4C DC
  can0  155   [8]  00 00 9E 93 00 00 57 55
  can0  155   [8]  FF FF 70 B0 00 00 00 00
  can0  155   [8]  00 00 9E FD FF FF 4C DC
  can0  155   [8]  00 00 9E 93 00 00 57 55
  can0  155   [8]  FF FF 70 B0 00 00 00 00
  can0  155   [8]  00 00 0F AD FF FF DC 2C
  can0  155   [8]  00 00 31 43 00 00 00 00
  can0  155   [8]  00 00 00 00 00 00 00 00
  can0  155   [8]  00 00 00 00 00 00 00 00
  can0  155   [8]  00 00 00 00 00 00 00 00
  can0  155   [8]  00 00 00 00 00 00 00 00
  can0  155   [8]  00 00 00 00 00 00 00 00
  can0  155   [8]  00 00 00 00 00 00 00 00
  can0  155   [8]  00 00 00 00 00 00 00 00
  can0  155   [8]  00 00 00 00 00 00 00 00
  can0  155   [8]  00 00 00 00 00 00 00 00
  can0  155   [8]  00 00 00 00 00 00 00 00
  can0  155   [8]  00 00 00 00 00 00 00 00
  can0  155   [8]  00 00 00 00 00 00 00 00
  can0  155   [8]  00 00 00 00 00 00 00 00
  can0  155   [8]  00 00 00 00 00 00 00 00
  can0  155   [8]  00 00 00 00 00 00 00 00
  can0  155   [8]  00 00 00 00 00 00 00 00
  can0  155   [8]  00 00 00 00 00 00 00 00
  can0  155   [8]  00 00 00 00 00 00 00 00
  can0  155   [8]  00 00 00 00 00 00 00 00
  can0  155   [8]  00 00 00 00 00 00 00 00
  can0  155   [8]  00 00 00 00 00 00 00 00
  can0  155   [8]  00 00 00 00 00 00 00 00
  can0  155   [8]  00 00 00 00 00 00 00 00
  can0  155   [8]  00 00 00 00 00 00 00 00
  can0  155   [8]  00 00 00 00 00 00 00 00
  can0  155   [8]  00 00 00 00 00 00 00 00
  can0  155   [8]  00 00 00 00 00 00 00 00
  can0  155   [8]  00 00 00 00 00 00 00 00
  can0  155   [8]  00 00 00 00 00 00 00 00
  can0  155   [8]  00 00 00 00 00 00 00 00
  can0  155   [8]  00 00 00 00 00 00 00 00
  can0  155   [8]  00 00 00 00 00 00 00 00
  can0  155   [8]  00 00 00 00 00 00 00 00
  can0  155   [8]  00 00 00 00 00 00 00 00
  can0  155   [8]  00 00 00 00 00 00 00 00
  can0  155   [8]  00 00 00 00 00 00 00 00
  can0  155   [8]  00 00 00 00 00 00 00 00
  can0  155   [8]  00 00 00 00 00 00 00 00
  can0  155   [8]  00 00 00 00 00 00 00 00
  can0  155   [8]  00 00 59 92 00 00 00 00
  can0  155   [8]  00 00 00 00 00 00 00 00
  can0  155   [8]  00 00 00 00 00 00 00 00
  can0  155   [8]  00 00 00 00 00 00 00 00
  can0  155   [8]  00 00 00 00 00 00 00 00
  can0  155   [8]  00 00 00 00 00 00 00 00
  can0  155   [8]  00 00 00 00 FF FE DC E6
  can0  155   [8]  00 00 00 00 FF FE 00 00
  can0  155   [8]  00 01 8E 96 00 00 00 00
  can0  155   [8]  00 00 00 00 FF FE E1 60
  can0  155   [8]  00 00 00 00 00 00 00 00
  can0  155   [8]  00 01 8E 96 00 00 00 00
  can0  155   [8]  00 00 00 00 FF FE E1 60
  can0  155   [8]  00 00 00 00 00 00 00 00
  can0  155   [8]  00 01 8E 96 00 00 00 00
  can0  155   [8]  00 00 B3 24 FF FE E1 60
  can0  155   [8]  00 00 B3 24 FF FE E1 00
  can0  155   [8]  00 01 8E 96 00 00 00 00
  can0  155   [8]  00 00 B3 24 FF FE E1 60
  can0  155   [8]  00 00 B3 00 00 00 00 00
  can0  155   [8]  00 01 8E 96 00 00 00 00
  can0  155   [8]  00 00 B3 24 FF FE E1 60
  can0  155   [8]  00 00 B3 24 FF FE E1 60
  can0  155   [8]  00 00 B3 24 FF FE E1 60
  can0  155   [8]  00 00 00 00 00 00 00 00
  can0  155   [8]  00 01 8E 96 00 00 00 00
  can0  155   [8]  00 00 B3 24 FF FE E1 60
  can0  155   [8]  00 00 B3 24 FF 00 00 00
  can0  155   [8]  00 01 8E 96 00 00 00 00
  can0  155   [8]  00 00 B3 24 FF FE E1 60
  can0  155   [8]  00 00 00 00 00 00 00 00
  can0  155   [8]  00 01 8E 96 00 00 00 00
  can0  155   [8]  00 00 B3 24 FF FE E1 60
  can0  155   [8]  00 00 B3 24 FF FE E1 60
  can0  155   [8]  00 00 B3 24 FF 00 00 00
  can0  155   [8]  00 01 8E 96 00 00 00 00
  can0  155   [8]  00 00 B3 24 FF FE E1 60
  can0  155   [8]  00 00 B3 24 FF 00 00 00
  can0  155   [8]  00 01 8E 96 00 00 00 00
  can0  155   [8]  00 00 B3 24 FF FE E1 60
  can0  155   [8]  00 00 B3 24 FF 00 00 00
  can0  155   [8]  00 01 8E 96 00 00 00 00
  can0  155   [8]  00 00 B3 24 FF FE E1 60
  can0  155   [8]  00 00 B3 00 00 00 00 00
  can0  155   [8]  00 01 8E 96 00 00 00 00
  can0  155   [8]  00 00 B3 24 FF FE E1 60
  can0  155   [8]  00 00 B3 24 FF FE 00 00
  can0  155   [8]  00 01 8E 96 00 00 00 00
  can0  155   [8]  00 00 B3 24 FF FE E1 60
  can0  155   [8]  00 00 B3 00 00 00 00 00
  can0  155   [8]  00 01 8E 96 00 00 00 00
  can0  155   [8]  00 00 B3 24 FF FE E1 60
  can0  155   [8]  00 00 B3 24 FF FE E1 60
  can0  155   [8]  00 00 B3 24 FF FE 00 00
  can0  155   [8]  00 01 8E 96 00 00 00 00
  can0  155   [8]  00 00 B3 24 FF FE E1 60
  can0  155   [8]  00 00 B3 00 00 00 00 00
  can0  155   [8]  00 00 B3 24 FF FE E1 60
  can0  155   [8]  00 00 00 00 00 00 00 00
  can0  155   [8]  00 01 8E 96 00 00 00 00
  can0  155   [8]  00 00 B3 24 FF FE E1 60
  can0  155   [8]  00 00 B3 24 FF FE E1 00
  can0  155   [8]  00 01 8E 96 00 00 00 00
  can0  155   [8]  00 00 B3 24 FF FE E1 60
  can0  155   [8]  00 00 B3 24 FF 00 00 00
  can0  155   [8]  00 01 8E 96 00 00 00 00
  can0  155   [8]  00 00 B3 24 FF FE E1 60
  can0  155   [8]  00 00 B3 24 FF FE E1 60
  can0  155   [8]  00 00 B3 24 00 00 00 00
  can0  155   [8]  00 01 8E 96 00 00 00 00
  can0  155   [8]  00 00 B3 24 FF FE E1 60
  can0  155   [8]  00 00 B3 24 FF FE E1 60
  can0  155   [8]  00 00 00 00 00 00 00 00
  can0  155   [8]  00 00 00 00 00 00 00 00
  can0  155   [8]  00 00 00 00 00 00 00 00
  can0  155   [8]  00 00 00 00 00 00 00 00
  can0  155   [8]  00 00 00 00 00 00 00 00
  can0  155   [8]  00 00 00 00 00 00 00 00
  can0  155   [8]  00 00 00 00 00 00 00 00
  can0  155   [8]  00 00 00 00 00 00 00 00
  can0  155   [8]  00 00 00 00 00 00 00 00
  can0  155   [8]  00 00 00 00 00 00 00 00
